# vsim -vopt work.HvlTop work.HdlTop -voptargs="+acc=npr" -sv_seed random -assertdebug "+UVM_TESTNAME=AhbLength4WriteFollowedByReadTest" "+UVM_VERBOSITY=UVM_HIGH" "+define+" -l AhbLength4WriteFollowedByReadTest/AhbLength4WriteFollowedByReadTest.log -sva -coverage -c -do "log -r /*; add wave -r /*; coverage save -onexit -assert -directive -cvg -codeAll AhbLength4WriteFollowedByReadTest/AhbLength4WriteFollowedByReadTest_coverage.ucdb; run -all; exit" -wlf AhbLength4WriteFollowedByReadTest/waveform.wlf 
# Start time: 17:08:54 on May 08,2026
# ** Note: (vsim-3812) Design is being optimized...
# ** Warning: ../../src/hdlTop/interconnect/AhbInterconnect.sv(231): (vopt-2182) 'slave_data_phase[0][0]' might be read before written in always_comb or always @* block.
# ** Warning: ../../src/hdlTop/interconnect/AhbInterconnect.sv(231): (vopt-2182) 'slave_data_phase[1][0]' might be read before written in always_comb or always @* block.
# ** Warning: ../../src/hdlTop/masterAgentBFM/AhbMasterAgentBFM.sv(41): (vopt-2685) [TFMPC] - Too few port connections for 'ahbMasterMonitorBFM'.  Expected 20, found 19.
# ** Warning: ../../src/hdlTop/masterAgentBFM/AhbMasterAgentBFM.sv(41): (vopt-2718) [TFMPC] - Missing connection for port 'hselx'.
# ** Warning: ../../src/hdlTop/masterAgentBFM/AhbMasterAgentBFM.sv(41): (vopt-2685) [TFMPC] - Too few port connections for 'ahbMasterMonitorBFM'.  Expected 20, found 19.
# ** Warning: ../../src/hdlTop/masterAgentBFM/AhbMasterAgentBFM.sv(41): (vopt-2718) [TFMPC] - Missing connection for port 'hselx'.
# ** Warning: ../../src/hvlTop/environment/AhbScoreboard.sv(262): (vopt-2897) Using non-standard foreach loop variable list syntax.
# ** Warning: ../../src/hvlTop/environment/AhbScoreboard.sv(262): (vopt-2897) Using non-standard foreach loop variable list syntax.
# ** Warning: ../../src/hvlTop/tb/test/AhbBaseTest.sv(63): (vopt-2240) Treating stand-alone use of function 'randomize' as an implicit VOID cast.
# //  Questa Sim
# //  Version 10.6c linux Jul 25 2017
# //
# //  Copyright 1991-2017 Mentor Graphics Corporation
# //  All Rights Reserved.
# //
# //  QuestaSim and its associated documentation contain trade
# //  secrets and commercial or financial information that are the property of
# //  Mentor Graphics Corporation and are privileged, confidential,
# //  and exempt from disclosure under the Freedom of Information Act,
# //  5 U.S.C. Section 552. Furthermore, this information
# //  is prohibited from disclosure under the Trade Secrets Act,
# //  18 U.S.C. Section 1905.
# //
# Loading sv_std.std
# Loading work.AhbMasterDriverBFM(fast)
# Loading work.AhbSlaveMonitorBFM(fast)
# Loading work.AhbGlobalPackage(fast)
# Loading mtiUvm.uvm_pkg
# Loading work.AhbSlavePackage(fast)
# Loading work.AhbMasterPackage(fast)
# Loading work.AhbEnvironmentPackage(fast)
# Loading work.AhbSlaveSequencePackage(fast)
# Loading work.AhbMasterSequencePackage(fast)
# Loading work.AhbVirtualSequencePackage(fast)
# Loading work.AhbTestPackage(fast)
# Loading work.AhbMasterMonitorBFM(fast)
# Loading work.AhbSlaveDriverBFM(fast)
# Loading work.HvlTop(fast)
# Loading work.HdlTop(fast)
# Loading work.AhbInterconnect_sv_unit(fast)
# Loading work.AhbInterconnect(fast)
# Loading work.AhbMasterAgentBFM(fast)
# Loading work.AhbMasterDriverBFM_sv_unit(fast)
# Loading work.AhbMasterDriverBFM(fast)
# Loading work.AhbMasterMonitorBFM_sv_unit(fast)
# Loading work.AhbMasterMonitorBFM(fast)
# Loading work.AhbMasterAgentBFM(fast__1)
# Loading work.AhbSlaveAgentBFM(fast)
# Loading work.AhbSlaveDriverBFM_sv_unit(fast)
# Loading work.AhbSlaveDriverBFM(fast)
# Loading work.AhbSlaveMonitorBFM_sv_unit(fast)
# Loading work.AhbSlaveMonitorBFM(fast)
# Loading work.AhbSlaveAgentBFM(fast__1)
# Loading mtiUvm.questa_uvm_pkg(fast)
# Loading work.AhbInterface_sv_unit(fast)
# Loading work.AhbInterface(fast__1)
# Loading work.AhbInterface(fast__2)
# ** Warning: (vsim-3015) ../../src/hdlTop/slaveAgentBFM/AhbSlaveAgentBFM.sv(40): [PCDPC] - Port size (2) does not match connection size (1) for port 'hselx'. The port definition is at: ../../src/hdlTop/slaveAgentBFM/AhbSlaveMonitorBFM.sv(25).
#    Time: 0 ns  Iteration: 0  Instance: /HdlTop/genblk2[0]/ahbSlaveAgentBFM/ahbSlaveMonitorBFM File: ../../src/hdlTop/slaveAgentBFM/AhbSlaveMonitorBFM.sv
# ** Warning: (vsim-3015) ../../src/hdlTop/slaveAgentBFM/AhbSlaveAgentBFM.sv(40): [PCDPC] - Port size (2) does not match connection size (1) for port 'hselx'. The port definition is at: ../../src/hdlTop/slaveAgentBFM/AhbSlaveMonitorBFM.sv(25).
#    Time: 0 ns  Iteration: 0  Instance: /HdlTop/genblk2[1]/ahbSlaveAgentBFM/ahbSlaveMonitorBFM File: ../../src/hdlTop/slaveAgentBFM/AhbSlaveMonitorBFM.sv
# Loading /tools/mentor/questasim_10.6c/questasim/uvm-1.1d/linux/uvm_dpi.so
# Sv_Seed = 2864334150
# log -r /*
#  add wave -r /*
#  coverage save -onexit -assert -directive -cvg -codeAll AhbLength4WriteFollowedByReadTest/AhbLength4WriteFollowedByReadTest_coverage.ucdb
#  run -all
# ----------------------------------------------------------------
# UVM-1.1d
# (C) 2007-2013 Mentor Graphics Corporation
# (C) 2007-2013 Cadence Design Systems, Inc.
# (C) 2006-2013 Synopsys, Inc.
# (C) 2011-2013 Cypress Semiconductor Corp.
# ----------------------------------------------------------------
# 
#   ***********       IMPORTANT RELEASE NOTES         ************
# 
#   You are using a version of the UVM library that has been compiled
#   with `UVM_NO_DEPRECATED undefined.
#   See http://www.eda.org/svdb/view.php?id=3313 for more details.
# 
#   You are using a version of the UVM library that has been compiled
#   with `UVM_OBJECT_MUST_HAVE_CONSTRUCTOR undefined.
#   See http://www.eda.org/svdb/view.php?id=3770 for more details.
# 
#       (Specify +UVM_NO_RELNOTES to turn off this notice)
# 
# UVM_INFO verilog_src/questa_uvm_pkg-1.2/src/questa_uvm_pkg.sv(215) @ 0: reporter [Questa UVM] QUESTA_UVM-1.2.3
# UVM_INFO verilog_src/questa_uvm_pkg-1.2/src/questa_uvm_pkg.sv(217) @ 0: reporter [Questa UVM]  questa_uvm::init(+struct)
# UVM_INFO @ 0: reporter [RNTST] Running test AhbLength4WriteFollowedByReadTest...
# UVM_INFO ../../src/hdlTop/HdlTop.sv(13) @ 0: reporter [HDL_TOP] HDL_TOP
# UVM_INFO ../../src/hdlTop/masterAgentBFM/AhbMasterAgentBFM.sv(15) @ 0: reporter [ahb master agent bfm] AHB MASTER AGENT BFM id is 0
# THE MASTER AGENT ARE  CREATED AS EXPECTED HdlTop.genblk1[0].ahbMasterAgentBFM.ahbMasterDriverBFM.MASTER_DRIVER
# UVM_INFO ../../src/hdlTop/masterAgentBFM/AhbMasterMonitorBFM.sv(43) @ 0: reporter [AHB_MASTER_MONITOR_BFM] AHB MASTER MONITOR BFM
# UVM_INFO ../../src/hdlTop/masterAgentBFM/AhbMasterAgentBFM.sv(15) @ 0: reporter [ahb master agent bfm] AHB MASTER AGENT BFM id is 1
# THE MASTER AGENT ARE  CREATED AS EXPECTED HdlTop.genblk1[1].ahbMasterAgentBFM.ahbMasterDriverBFM.MASTER_DRIVER
# UVM_INFO ../../src/hdlTop/masterAgentBFM/AhbMasterMonitorBFM.sv(43) @ 0: reporter [AHB_MASTER_MONITOR_BFM] AHB MASTER MONITOR BFM
# UVM_INFO ../../src/hdlTop/slaveAgentBFM/AhbSlaveAgentBFM.sv(14) @ 0: reporter [ahb slave agent bfm] AHB SLAVE AGENT BFM 0
# UVM_INFO ../../src/hdlTop/slaveAgentBFM/AhbSlaveDriverBFM.sv(40) @ 0: reporter [AHB_SLAVE_DRIVER_BFM] AHB_SLAVE_DRIVER_BFM
# UVM_INFO ../../src/hdlTop/slaveAgentBFM/AhbSlaveMonitorBFM.sv(44) @ 0: reporter [AHB_SLAVE_MONITOR_BFM] AHB_SLAVE_MONITOR_BFM
# UVM_INFO ../../src/hdlTop/slaveAgentBFM/AhbSlaveAgentBFM.sv(14) @ 0: reporter [ahb slave agent bfm] AHB SLAVE AGENT BFM 1
# UVM_INFO ../../src/hdlTop/slaveAgentBFM/AhbSlaveDriverBFM.sv(40) @ 0: reporter [AHB_SLAVE_DRIVER_BFM] AHB_SLAVE_DRIVER_BFM
# UVM_INFO ../../src/hdlTop/slaveAgentBFM/AhbSlaveMonitorBFM.sv(44) @ 0: reporter [AHB_SLAVE_MONITOR_BFM] AHB_SLAVE_MONITOR_BFM
#                    0else hready 0 master [1] can_accept=0 oldest_is_ready=1
#                    0else hready 0 master [0] can_accept=0 oldest_is_ready=1
#  1st hwdata = x
# [0] my_hwdata = x ahbSlaveInterface[1].haddr = x
#  2nd hwdata = x
#  1st hwdata = x
# [0] my_hwdata = x ahbSlaveInterface[0].haddr = x
#  2nd hwdata = x
# ENTERED THIS BLOCK @0
# ENTERED THIS BLOCK @0
# [0] master_request[1][0] = x , master_hmastlock[0] == x
# [0] master_request[1][1] = x , master_hmastlock[1] == x
# check locked_present = 0 , can_accept=x slave_data_phase[s].valid = x  slave_hreadyout[s]=x
# [0] master_request[0][0] = x , master_hmastlock[0] == x
# [0] master_request[0][1] = x , master_hmastlock[1] == x
# check locked_present = 0 , can_accept=x slave_data_phase[s].valid = x  slave_hreadyout[s]=x
# ** Info: THE REQ IS x for the slave 1
#    Time: 0 ns  Scope: HdlTop.ahbinterconnect.genblk5[1].genblk1[1] File: ../../src/hdlTop/interconnect/AhbInterconnect.sv Line: 191
# ** Info: THE GRANT IS x for the slave 1 addr is x for master 1
#    Time: 0 ns  Scope: HdlTop.ahbinterconnect.genblk5[1].genblk1[1] File: ../../src/hdlTop/interconnect/AhbInterconnect.sv Line: 192
# ** Info: THE REQ IS x for the slave 1
#    Time: 0 ns  Scope: HdlTop.ahbinterconnect.genblk5[1].genblk1[0] File: ../../src/hdlTop/interconnect/AhbInterconnect.sv Line: 191
# ** Info: THE GRANT IS x for the slave 1 addr is x for master 0
#    Time: 0 ns  Scope: HdlTop.ahbinterconnect.genblk5[1].genblk1[0] File: ../../src/hdlTop/interconnect/AhbInterconnect.sv Line: 192
# ** Info: THE REQ IS x for the slave 0
#    Time: 0 ns  Scope: HdlTop.ahbinterconnect.genblk5[0].genblk1[1] File: ../../src/hdlTop/interconnect/AhbInterconnect.sv Line: 191
# ** Info: THE GRANT IS x for the slave 0 addr is x for master 1
#    Time: 0 ns  Scope: HdlTop.ahbinterconnect.genblk5[0].genblk1[1] File: ../../src/hdlTop/interconnect/AhbInterconnect.sv Line: 192
# ** Info: THE REQ IS x for the slave 0
#    Time: 0 ns  Scope: HdlTop.ahbinterconnect.genblk5[0].genblk1[0] File: ../../src/hdlTop/interconnect/AhbInterconnect.sv Line: 191
# ** Info: THE GRANT IS x for the slave 0 addr is x for master 0
#    Time: 0 ns  Scope: HdlTop.ahbinterconnect.genblk5[0].genblk1[0] File: ../../src/hdlTop/interconnect/AhbInterconnect.sv Line: 192
# invalid  address x
# invalid  address x
# invalid  address x
# invalid  address x
# [0] my_slave = 0, my_read_owner = x
# [0] my_slave = 0, my_read_owner = x
# [0] my_slave = 1, my_read_owner = x
# [0] my_slave = 1, my_read_owner = x
#                    0else hready 0 master [0] can_accept=0 oldest_is_ready=1
#                    0else hready 0 master [1] can_accept=0 oldest_is_ready=1
# ENTERED THIS BLOCK @0
# ENTERED THIS BLOCK @0
# [0] master_request[1][0] = x , master_hmastlock[0] == x
# [0] master_request[1][1] = x , master_hmastlock[1] == x
# check locked_present = 0 , can_accept=0 slave_data_phase[s].valid = x  slave_hreadyout[s]=0
# [0] master_request[0][0] = x , master_hmastlock[0] == x
# [0] master_request[0][1] = x , master_hmastlock[1] == x
# check locked_present = 0 , can_accept=0 slave_data_phase[s].valid = x  slave_hreadyout[s]=0
# THE MASTER FIELD IS AhbMasterDriverBFM0 
# THE MASTER FIELD IS AhbMasterDriverBFM1 
# UVM_INFO ../../src/hvlTop/tb/test/AhbBaseTest.sv(57) @ 0: uvm_test_top [AhbLength4WriteFollowedByReadTest] 
# AHB_MASTER_CONFIG[0]
# ----------------------------------------------------------
# Name                     Type                  Size  Value
# ----------------------------------------------------------
# AhbMasterAgentConfig[0]  AhbMasterAgentConfig  -     @505 
#   is_active              integral              1     1    
#   hasCoverage            integral              1     1    
# ----------------------------------------------------------
# 
# UVM_INFO ../../src/hvlTop/tb/test/AhbBaseTest.sv(57) @ 0: uvm_test_top [AhbLength4WriteFollowedByReadTest] 
# AHB_MASTER_CONFIG[1]
# ----------------------------------------------------------
# Name                     Type                  Size  Value
# ----------------------------------------------------------
# AhbMasterAgentConfig[1]  AhbMasterAgentConfig  -     @506 
#   is_active              integral              1     1    
#   hasCoverage            integral              1     1    
# ----------------------------------------------------------
# 
# THE FIELD IS AhbSlaveDriverBFM0
# THE FIELD IS AhbSlaveDriverBFM1
# UVM_INFO ../../src/hvlTop/tb/test/AhbBaseTest.sv(70) @ 0: uvm_test_top [AhbLength4WriteFollowedByReadTest] 
# AHB_SLAVE_CONFIG[0]
# -------------------------------------------------------------
# Name                    Type                 Size  Value     
# -------------------------------------------------------------
# AhbSlaveAgentConfig[0]  AhbSlaveAgentConfig  -     @517      
#   is_active             string               10    UVM_ACTIVE
#   hasCoverage           integral             1     1         
#   maximumAddress        integral             32    'h0       
#   minimumAddress        integral             32    'h0       
# -------------------------------------------------------------
# 
# UVM_INFO ../../src/hvlTop/tb/test/AhbBaseTest.sv(70) @ 0: uvm_test_top [AhbLength4WriteFollowedByReadTest] 
# AHB_SLAVE_CONFIG[1]
# -------------------------------------------------------------
# Name                    Type                 Size  Value     
# -------------------------------------------------------------
# AhbSlaveAgentConfig[1]  AhbSlaveAgentConfig  -     @518      
#   is_active             string               10    UVM_ACTIVE
#   hasCoverage           integral             1     1         
#   maximumAddress        integral             32    'h0       
#   minimumAddress        integral             32    'h0       
# -------------------------------------------------------------
# 
# UVM_INFO ../../src/hvlTop/tb/test/AhbBaseTest.sv(74) @ 0: uvm_test_top [AhbLength4WriteFollowedByReadTest] 
# AHB_ENV_CONFIG
# -------------------------------------------------------------
# Name                   Type                  Size  Value     
# -------------------------------------------------------------
# ahbEnvironmentConfig   AhbEnvironmentConfig  -     @504      
#   hasScoreboard        integral              1     1         
#   hasVirtualSequencer  integral              1     1         
#   noOfMasters          integral              32    'd2       
#   noOfSlaves           integral              32    'd2       
#   operationMode        integral              2     2         
#   operationMode        string                10    WRITE_READ
# -------------------------------------------------------------
# 
# ASSIGNMENT IN ENV IS 0
# ASSIGNMENT IN ENV IS 0
# THE CONFIG IS 65903
# THE CONFIG IS 131439
# THE NUMBER OF WAIT IS 0
# IN THE SLAVE PROXY THE  0
# THE NUMBER OF WAIT IS 0
# IN THE SLAVE PROXY THE  0
# UVM_INFO @ 0: reporter [UVMTOP] UVM testbench topology:
# ------------------------------------------------------------------------------
# Name                            Type                               Size  Value
# ------------------------------------------------------------------------------
# uvm_test_top                    AhbLength4WriteFollowedByReadTest  -     @473 
#   swasthik                      AhbEnvironment                     -     @533 
#     ahbMasterAgent[0]           AhbMasterAgent                     -     @543 
#       ahbMasterCoverage         AhbMasterCoverage                  -     @1025
#         analysis_imp            uvm_analysis_imp                   -     @1032
#       ahbMasterDriverProxy      AhbMasterDriverProxy               -     @987 
#         rsp_port                uvm_analysis_port                  -     @1002
#         seq_item_port           uvm_seq_item_pull_port             -     @994 
#       ahbMasterMonitorProxy     AhbMasterMonitorProxy              -     @1010
#         ahbMasterAnalysisPort   uvm_analysis_port                  -     @1017
#       ahbMasterSequencer        AhbMasterSequencer                 -     @878 
#         rsp_export              uvm_analysis_export                -     @885 
#         seq_item_export         uvm_seq_item_pull_imp              -     @979 
#         arbitration_queue       array                              0     -    
#         lock_queue              array                              0     -    
#         num_last_reqs           integral                           32    'd1  
#         num_last_rsps           integral                           32    'd1  
#     ahbMasterAgent[1]           AhbMasterAgent                     -     @550 
#       ahbMasterCoverage         AhbMasterCoverage                  -     @1193
#         analysis_imp            uvm_analysis_imp                   -     @1200
#       ahbMasterDriverProxy      AhbMasterDriverProxy               -     @1155
#         rsp_port                uvm_analysis_port                  -     @1170
#         seq_item_port           uvm_seq_item_pull_port             -     @1162
#       ahbMasterMonitorProxy     AhbMasterMonitorProxy              -     @1178
#         ahbMasterAnalysisPort   uvm_analysis_port                  -     @1185
#       ahbMasterSequencer        AhbMasterSequencer                 -     @1046
#         rsp_export              uvm_analysis_export                -     @1053
#         seq_item_export         uvm_seq_item_pull_imp              -     @1147
#         arbitration_queue       array                              0     -    
#         lock_queue              array                              0     -    
#         num_last_reqs           integral                           32    'd1  
#         num_last_rsps           integral                           32    'd1  
#     ahbScoreboard               AhbScoreboard                      -     @682 
#       ahbMasterAnalysisFifo[0]  uvm_tlm_analysis_fifo #(T)         -     @689 
#         analysis_export         uvm_analysis_imp                   -     @728 
#         get_ap                  uvm_analysis_port                  -     @720 
#         get_peek_export         uvm_get_peek_imp                   -     @704 
#         put_ap                  uvm_analysis_port                  -     @712 
#         put_export              uvm_put_imp                        -     @696 
#       ahbMasterAnalysisFifo[1]  uvm_tlm_analysis_fifo #(T)         -     @736 
#         analysis_export         uvm_analysis_imp                   -     @775 
#         get_ap                  uvm_analysis_port                  -     @767 
#         get_peek_export         uvm_get_peek_imp                   -     @751 
#         put_ap                  uvm_analysis_port                  -     @759 
#         put_export              uvm_put_imp                        -     @743 
#       ahbSlaveAnalysisFifo[0]   uvm_tlm_analysis_fifo #(T)         -     @783 
#         analysis_export         uvm_analysis_imp                   -     @822 
#         get_ap                  uvm_analysis_port                  -     @814 
#         get_peek_export         uvm_get_peek_imp                   -     @798 
#         put_ap                  uvm_analysis_port                  -     @806 
#         put_export              uvm_put_imp                        -     @790 
#       ahbSlaveAnalysisFifo[1]   uvm_tlm_analysis_fifo #(T)         -     @830 
#         analysis_export         uvm_analysis_imp                   -     @869 
#         get_ap                  uvm_analysis_port                  -     @861 
#         get_peek_export         uvm_get_peek_imp                   -     @845 
#         put_ap                  uvm_analysis_port                  -     @853 
#         put_export              uvm_put_imp                        -     @837 
#     ahbSlaveAgent[0]            AhbSlaveAgent                      -     @559 
#       ahbSlaveCoverage          AhbSlaveCoverage                   -     @1362
#         analysis_imp            uvm_analysis_imp                   -     @1369
#       ahbSlaveDriverProxy       AhbSlaveDriverProxy                -     @1324
#         rsp_port                uvm_analysis_port                  -     @1339
#         seq_item_port           uvm_seq_item_pull_port             -     @1331
#       ahbSlaveMonitorProxy      AhbSlaveMonitorProxy               -     @1347
#         ahbSlaveAnalysisPort    uvm_analysis_port                  -     @1354
#       ahbSlaveSequencer         AhbSlaveSequencer                  -     @1215
#         rsp_export              uvm_analysis_export                -     @1222
#         seq_item_export         uvm_seq_item_pull_imp              -     @1316
#         arbitration_queue       array                              0     -    
#         lock_queue              array                              0     -    
#         num_last_reqs           integral                           32    'd1  
#         num_last_rsps           integral                           32    'd1  
#     ahbSlaveAgent[1]            AhbSlaveAgent                      -     @566 
#       ahbSlaveCoverage          AhbSlaveCoverage                   -     @1530
#         analysis_imp            uvm_analysis_imp                   -     @1537
#       ahbSlaveDriverProxy       AhbSlaveDriverProxy                -     @1492
#         rsp_port                uvm_analysis_port                  -     @1507
#         seq_item_port           uvm_seq_item_pull_port             -     @1499
#       ahbSlaveMonitorProxy      AhbSlaveMonitorProxy               -     @1515
#         ahbSlaveAnalysisPort    uvm_analysis_port                  -     @1522
#       ahbSlaveSequencer         AhbSlaveSequencer                  -     @1383
#         rsp_export              uvm_analysis_export                -     @1390
#         seq_item_export         uvm_seq_item_pull_imp              -     @1484
#         arbitration_queue       array                              0     -    
#         lock_queue              array                              0     -    
#         num_last_reqs           integral                           32    'd1  
#         num_last_rsps           integral                           32    'd1  
#     ahbVirtualSequencer         AhbVirtualSequencer                -     @573 
#       rsp_export                uvm_analysis_export                -     @580 
#       seq_item_export           uvm_seq_item_pull_imp              -     @674 
#       arbitration_queue         array                              0     -    
#       lock_queue                array                              0     -    
#       num_last_reqs             integral                           32    'd1  
#       num_last_rsps             integral                           32    'd1  
# ------------------------------------------------------------------------------
# 
# UVM_INFO verilog_src/questa_uvm_pkg-1.2/src/questa_uvm_pkg.sv(277) @ 0: reporter [Questa UVM] End Of Elaboration
# UVM_INFO ../../src/hvlTop/tb/test/AhbLength4WriteFollowedByReadTest.sv(28) @ 0: uvm_test_top [AhbLength4WriteFollowedByReadTest] AhbLength4WriteFollowedByReadTest
# CONNVERTER NO OF WAIT STATES IS 0
# UVM_INFO ../../src/hvlTop/slaveAgent/AhbSlaveDriverProxy.sv(49) @ 0: uvm_test_top.swasthik.ahbSlaveAgent[1].ahbSlaveDriverProxy [AhbSlaveDriverProxy]  BEFORERESET 
#  
# CONNVERTER NO OF WAIT STATES IS 0
# UVM_INFO ../../src/hvlTop/slaveAgent/AhbSlaveDriverProxy.sv(49) @ 0: uvm_test_top.swasthik.ahbSlaveAgent[0].ahbSlaveDriverProxy [AhbSlaveDriverProxy]  BEFORERESET 
#  
# UVM_INFO ../../src/hvlTop/masterAgent/AhbMasterMonitorProxy.sv(56) @ 0: uvm_test_top.swasthik.ahbMasterAgent[1].ahbMasterMonitorProxy [AhbMasterMonitorProxy] Inside the master_monitor_proxy
# RESET CALLED
# UVM_INFO ../../src/hvlTop/masterAgent/AhbMasterMonitorProxy.sv(56) @ 0: uvm_test_top.swasthik.ahbMasterAgent[0].ahbMasterMonitorProxy [AhbMasterMonitorProxy] Inside the master_monitor_proxy
# RESET CALLED
# [5] my_slave = 0, my_read_owner = x
# [5] my_slave = 0, my_read_owner = x
# [5] my_slave = 1, my_read_owner = x
# [5] my_slave = 1, my_read_owner = x
# UVM_INFO ../../src/hdlTop/slaveAgentBFM/AhbSlaveDriverBFM.sv(52) @ 5: reporter [AHB_SLAVE_DRIVER_BFM] SYSTEM RESET DETECTED
# UVM_INFO ../../src/hdlTop/slaveAgentBFM/AhbSlaveDriverBFM.sv(52) @ 5: reporter [AHB_SLAVE_DRIVER_BFM] SYSTEM RESET DETECTED
# UVM_INFO ../../src/hdlTop/masterAgentBFM/AhbMasterDriverBFM.sv(48) @ 5: reporter [AHB_MASTER_DRIVER_BFM] SYSTEM RESET DETECTED
# UVM_INFO ../../src/hdlTop/masterAgentBFM/AhbMasterMonitorBFM.sv(48) @ 5: reporter [AHB_MASTER_MONITOR_BFM] system reset detected
# UVM_INFO ../../src/hdlTop/masterAgentBFM/AhbMasterDriverBFM.sv(48) @ 5: reporter [AHB_MASTER_DRIVER_BFM] SYSTEM RESET DETECTED
# UVM_INFO ../../src/hdlTop/masterAgentBFM/AhbMasterMonitorBFM.sv(48) @ 5: reporter [AHB_MASTER_MONITOR_BFM] system reset detected
#                    5else hready 0 master [0] can_accept=0 oldest_is_ready=1
#                    5else hready 0 master [1] can_accept=0 oldest_is_ready=1
# [5] master_request[1][0] = x , master_hmastlock[0] == x
# [5] master_request[1][1] = x , master_hmastlock[1] == x
# check locked_present = 0 , can_accept=1 slave_data_phase[s].valid = x  slave_hreadyout[s]=1
#                    5 3rd block can accept=1 slave=1
# slave_has_owner = x slave = 1 
# [5] master_request[0][0] = x , master_hmastlock[0] == x
# [5] master_request[0][1] = x , master_hmastlock[1] == x
# check locked_present = 0 , can_accept=1 slave_data_phase[s].valid = x  slave_hreadyout[s]=1
#                    5 3rd block can accept=1 slave=0
# slave_has_owner = x slave = 0 
#                    5else hready 0 master [0] can_accept=0 oldest_is_ready=1
#                    5else hready 0 master [1] can_accept=0 oldest_is_ready=1
# [5] master_request[1][0] = x , master_hmastlock[0] == x
# [5] master_request[1][1] = x , master_hmastlock[1] == x
# check locked_present = 0 , can_accept=1 slave_data_phase[s].valid = x  slave_hreadyout[s]=1
#                    5 3rd block can accept=1 slave=1
# slave_has_owner = 0 slave = 1 
# [5] master_request[0][0] = x , master_hmastlock[0] == x
# [5] master_request[0][1] = x , master_hmastlock[1] == x
# check locked_present = 0 , can_accept=1 slave_data_phase[s].valid = x  slave_hreadyout[s]=1
#                    5 3rd block can accept=1 slave=0
# slave_has_owner = 0 slave = 0 
# @                  15 H EY MAN
# ENTERED THIS BLOCK @15
# ENTERED THIS BLOCK @15
# UVM_INFO ../../src/hdlTop/masterAgentBFM/AhbMasterMonitorBFM.sv(50) @ 15: reporter [AHB_MASTER_MONITOR_BFM] system reset deactivated
# UVM_INFO ../../src/hdlTop/masterAgentBFM/AhbMasterMonitorBFM.sv(50) @ 15: reporter [AHB_MASTER_MONITOR_BFM] system reset deactivated
# ishika 15 haddr = 0
# [15] from master monitor = haddr=x, hwdata = x, hrdata = x, hwstrb=x 
# ** Warning: (vsim-8233) ../../src/hvlTop/masterAgent/AhbMasterSequenceItemConverter.sv(167): Index 16 into empty array is out of bounds.
#    Time: 15 ns  Iteration: 3  Region: /uvm_pkg::uvm_task_phase::execute
# ** Warning: (vsim-8233) ../../src/hvlTop/masterAgent/AhbMasterSequenceItemConverter.sv(167): Index 15 into empty array is out of bounds.
#    Time: 15 ns  Iteration: 3  Region: /uvm_pkg::uvm_task_phase::execute
# ** Warning: (vsim-8233) ../../src/hvlTop/masterAgent/AhbMasterSequenceItemConverter.sv(167): Index 14 into empty array is out of bounds.
#    Time: 15 ns  Iteration: 3  Region: /uvm_pkg::uvm_task_phase::execute
# ** Warning: (vsim-8233) ../../src/hvlTop/masterAgent/AhbMasterSequenceItemConverter.sv(167): Index 13 into empty array is out of bounds.
#    Time: 15 ns  Iteration: 3  Region: /uvm_pkg::uvm_task_phase::execute
# ** Warning: (vsim-8233) ../../src/hvlTop/masterAgent/AhbMasterSequenceItemConverter.sv(167): Index 12 into empty array is out of bounds.
#    Time: 15 ns  Iteration: 3  Region: /uvm_pkg::uvm_task_phase::execute
# ** Warning: (vsim-8233) ../../src/hvlTop/masterAgent/AhbMasterSequenceItemConverter.sv(167): Index 11 into empty array is out of bounds.
#    Time: 15 ns  Iteration: 3  Region: /uvm_pkg::uvm_task_phase::execute
# ** Warning: (vsim-8233) ../../src/hvlTop/masterAgent/AhbMasterSequenceItemConverter.sv(167): Index 10 into empty array is out of bounds.
#    Time: 15 ns  Iteration: 3  Region: /uvm_pkg::uvm_task_phase::execute
# ** Warning: (vsim-8233) ../../src/hvlTop/masterAgent/AhbMasterSequenceItemConverter.sv(167): Index 9 into empty array is out of bounds.
#    Time: 15 ns  Iteration: 3  Region: /uvm_pkg::uvm_task_phase::execute
# ** Warning: (vsim-8233) ../../src/hvlTop/masterAgent/AhbMasterSequenceItemConverter.sv(167): Index 8 into empty array is out of bounds.
#    Time: 15 ns  Iteration: 3  Region: /uvm_pkg::uvm_task_phase::execute
# ** Warning: (vsim-8233) ../../src/hvlTop/masterAgent/AhbMasterSequenceItemConverter.sv(167): Index 7 into empty array is out of bounds.
#    Time: 15 ns  Iteration: 3  Region: /uvm_pkg::uvm_task_phase::execute
# ** Warning: (vsim-8233) ../../src/hvlTop/masterAgent/AhbMasterSequenceItemConverter.sv(167): Index 6 into empty array is out of bounds.
#    Time: 15 ns  Iteration: 3  Region: /uvm_pkg::uvm_task_phase::execute
# ** Warning: (vsim-8233) ../../src/hvlTop/masterAgent/AhbMasterSequenceItemConverter.sv(167): Index 5 into empty array is out of bounds.
#    Time: 15 ns  Iteration: 3  Region: /uvm_pkg::uvm_task_phase::execute
# ** Warning: (vsim-8233) ../../src/hvlTop/masterAgent/AhbMasterSequenceItemConverter.sv(167): Index 4 into empty array is out of bounds.
#    Time: 15 ns  Iteration: 3  Region: /uvm_pkg::uvm_task_phase::execute
# ** Warning: (vsim-8233) ../../src/hvlTop/masterAgent/AhbMasterSequenceItemConverter.sv(167): Index 3 into empty array is out of bounds.
#    Time: 15 ns  Iteration: 3  Region: /uvm_pkg::uvm_task_phase::execute
# ** Warning: (vsim-8233) ../../src/hvlTop/masterAgent/AhbMasterSequenceItemConverter.sv(167): Index 2 into empty array is out of bounds.
#    Time: 15 ns  Iteration: 3  Region: /uvm_pkg::uvm_task_phase::execute
# ** Warning: (vsim-8233) ../../src/hvlTop/masterAgent/AhbMasterSequenceItemConverter.sv(167): Index 1 into empty array is out of bounds.
#    Time: 15 ns  Iteration: 3  Region: /uvm_pkg::uvm_task_phase::execute
# UVM_INFO ../../src/hvlTop/masterAgent/AhbMasterMonitorProxy.sv(72) @ 15: uvm_test_top.swasthik.ahbMasterAgent[1].ahbMasterMonitorProxy [AhbMasterMonitorProxy] Sending packet via analysis_port: , 
#  ------------------------------------------------------------------------
# Name                      Type                  Size  Value             
# ------------------------------------------------------------------------
# ahbMasterPacket           AhbMasterTransaction  -     @1759             
#   haddr                   integral              32    'h0               
#   hselx                   integral              2     'b0               
#   hburst                  string                6     SINGLE            
#   hmastlock               integral              1     'h0               
#   hprot                   string                18    NORMAL_SECURE_DATA
#   hsize                   string                4     BYTE              
#   hnonsec                 integral              1     'h0               
#   hexcl                   integral              1     'h0               
#   hmaster                 integral              1     'd0               
#   htrans                  string                4     IDLE              
#   hwrite                  string                4     READ              
#   hreadyout               integral              1     'h0               
#   hresp                   string                4     OKAY              
#   hexokay                 integral              1     'h0               
#   hready                  integral              1     'h0               
#   noOfwaitStatesDetected  integral              32    'h0               
#   hrdata[0]               integral              32    'h0               
# ------------------------------------------------------------------------
# 
# UVM_INFO ../../src/hvlTop/masterAgent/AhbMasterCoverage.sv(107) @ 15: uvm_test_top.swasthik.ahbMasterAgent[1].ahbMasterCoverage [AhbMasterCoverage] Before calling SAMPLE METHOD
# UVM_INFO ../../src/hvlTop/masterAgent/AhbMasterCoverage.sv(109) @ 15: uvm_test_top.swasthik.ahbMasterAgent[1].ahbMasterCoverage [AhbMasterCoverage] After calling SAMPLE METHOD
# UVM_INFO ../../src/hdlTop/masterAgentBFM/AhbMasterDriverBFM.sv(52) @ 15: reporter [AHB_MASTER_DRIVER_BFM]  @15 SYSTEM RESET DEACTIVATED
# 
#  
#  getting next one 
#  
# 
# ....I AM HERE..... 15 
# ishika 15 haddr = 0
# [15] from master monitor = haddr=x, hwdata = x, hrdata = x, hwstrb=x 
# ** Warning: (vsim-8233) ../../src/hvlTop/masterAgent/AhbMasterSequenceItemConverter.sv(167): Index 16 into empty array is out of bounds.
#    Time: 15 ns  Iteration: 3  Region: /uvm_pkg::uvm_task_phase::execute
# ** Warning: (vsim-8233) ../../src/hvlTop/masterAgent/AhbMasterSequenceItemConverter.sv(167): Index 15 into empty array is out of bounds.
#    Time: 15 ns  Iteration: 3  Region: /uvm_pkg::uvm_task_phase::execute
# ** Warning: (vsim-8233) ../../src/hvlTop/masterAgent/AhbMasterSequenceItemConverter.sv(167): Index 14 into empty array is out of bounds.
#    Time: 15 ns  Iteration: 3  Region: /uvm_pkg::uvm_task_phase::execute
# ** Warning: (vsim-8233) ../../src/hvlTop/masterAgent/AhbMasterSequenceItemConverter.sv(167): Index 13 into empty array is out of bounds.
#    Time: 15 ns  Iteration: 3  Region: /uvm_pkg::uvm_task_phase::execute
# ** Warning: (vsim-8233) ../../src/hvlTop/masterAgent/AhbMasterSequenceItemConverter.sv(167): Index 12 into empty array is out of bounds.
#    Time: 15 ns  Iteration: 3  Region: /uvm_pkg::uvm_task_phase::execute
# ** Warning: (vsim-8233) ../../src/hvlTop/masterAgent/AhbMasterSequenceItemConverter.sv(167): Index 11 into empty array is out of bounds.
#    Time: 15 ns  Iteration: 3  Region: /uvm_pkg::uvm_task_phase::execute
# ** Warning: (vsim-8233) ../../src/hvlTop/masterAgent/AhbMasterSequenceItemConverter.sv(167): Index 10 into empty array is out of bounds.
#    Time: 15 ns  Iteration: 3  Region: /uvm_pkg::uvm_task_phase::execute
# ** Warning: (vsim-8233) ../../src/hvlTop/masterAgent/AhbMasterSequenceItemConverter.sv(167): Index 9 into empty array is out of bounds.
#    Time: 15 ns  Iteration: 3  Region: /uvm_pkg::uvm_task_phase::execute
# ** Warning: (vsim-8233) ../../src/hvlTop/masterAgent/AhbMasterSequenceItemConverter.sv(167): Index 8 into empty array is out of bounds.
#    Time: 15 ns  Iteration: 3  Region: /uvm_pkg::uvm_task_phase::execute
# ** Warning: (vsim-8233) ../../src/hvlTop/masterAgent/AhbMasterSequenceItemConverter.sv(167): Index 7 into empty array is out of bounds.
#    Time: 15 ns  Iteration: 3  Region: /uvm_pkg::uvm_task_phase::execute
# ** Warning: (vsim-8233) ../../src/hvlTop/masterAgent/AhbMasterSequenceItemConverter.sv(167): Index 6 into empty array is out of bounds.
#    Time: 15 ns  Iteration: 3  Region: /uvm_pkg::uvm_task_phase::execute
# ** Warning: (vsim-8233) ../../src/hvlTop/masterAgent/AhbMasterSequenceItemConverter.sv(167): Index 5 into empty array is out of bounds.
#    Time: 15 ns  Iteration: 3  Region: /uvm_pkg::uvm_task_phase::execute
# ** Warning: (vsim-8233) ../../src/hvlTop/masterAgent/AhbMasterSequenceItemConverter.sv(167): Index 4 into empty array is out of bounds.
#    Time: 15 ns  Iteration: 3  Region: /uvm_pkg::uvm_task_phase::execute
# ** Warning: (vsim-8233) ../../src/hvlTop/masterAgent/AhbMasterSequenceItemConverter.sv(167): Index 3 into empty array is out of bounds.
#    Time: 15 ns  Iteration: 3  Region: /uvm_pkg::uvm_task_phase::execute
# ** Warning: (vsim-8233) ../../src/hvlTop/masterAgent/AhbMasterSequenceItemConverter.sv(167): Index 2 into empty array is out of bounds.
#    Time: 15 ns  Iteration: 3  Region: /uvm_pkg::uvm_task_phase::execute
# ** Warning: (vsim-8233) ../../src/hvlTop/masterAgent/AhbMasterSequenceItemConverter.sv(167): Index 1 into empty array is out of bounds.
#    Time: 15 ns  Iteration: 3  Region: /uvm_pkg::uvm_task_phase::execute
# UVM_INFO ../../src/hvlTop/masterAgent/AhbMasterMonitorProxy.sv(72) @ 15: uvm_test_top.swasthik.ahbMasterAgent[0].ahbMasterMonitorProxy [AhbMasterMonitorProxy] Sending packet via analysis_port: , 
#  ------------------------------------------------------------------------
# Name                      Type                  Size  Value             
# ------------------------------------------------------------------------
# ahbMasterPacket           AhbMasterTransaction  -     @1763             
#   haddr                   integral              32    'h0               
#   hselx                   integral              2     'b0               
#   hburst                  string                6     SINGLE            
#   hmastlock               integral              1     'h0               
#   hprot                   string                18    NORMAL_SECURE_DATA
#   hsize                   string                4     BYTE              
#   hnonsec                 integral              1     'h0               
#   hexcl                   integral              1     'h0               
#   hmaster                 integral              1     'd0               
#   htrans                  string                4     IDLE              
#   hwrite                  string                4     READ              
#   hreadyout               integral              1     'h0               
#   hresp                   string                4     OKAY              
#   hexokay                 integral              1     'h0               
#   hready                  integral              1     'h0               
#   noOfwaitStatesDetected  integral              32    'h0               
#   hrdata[0]               integral              32    'h0               
# ------------------------------------------------------------------------
# 
# UVM_INFO ../../src/hvlTop/masterAgent/AhbMasterCoverage.sv(107) @ 15: uvm_test_top.swasthik.ahbMasterAgent[0].ahbMasterCoverage [AhbMasterCoverage] Before calling SAMPLE METHOD
# UVM_INFO ../../src/hvlTop/masterAgent/AhbMasterCoverage.sv(109) @ 15: uvm_test_top.swasthik.ahbMasterAgent[0].ahbMasterCoverage [AhbMasterCoverage] After calling SAMPLE METHOD
# UVM_INFO ../../src/hdlTop/masterAgentBFM/AhbMasterDriverBFM.sv(52) @ 15: reporter [AHB_MASTER_DRIVER_BFM]  @15 SYSTEM RESET DEACTIVATED
# 
#  
#  getting next one 
#  
# 
# ....I AM HERE..... 15 
# UVM_INFO ../../src/hdlTop/slaveAgentBFM/AhbSlaveDriverBFM.sv(56) @ 15: reporter [AHB_SLAVE_DRIVER_BFM] SYSTEM RESET DEACTIVATED
# UVM_INFO ../../src/hdlTop/slaveAgentBFM/AhbSlaveDriverBFM.sv(56) @ 15: reporter [AHB_SLAVE_DRIVER_BFM] SYSTEM RESET DEACTIVATED
# [15] run phase got m_tx haddr=0, mtx=2, htrans= 0 
# ------------------------------------------------------------------------
# Name                      Type                  Size  Value             
# ------------------------------------------------------------------------
# ahbMasterPacket           AhbMasterTransaction  -     @1759             
#   haddr                   integral              32    'h0               
#   hselx                   integral              2     'b0               
#   hburst                  string                6     SINGLE            
#   hmastlock               integral              1     'h0               
#   hprot                   string                18    NORMAL_SECURE_DATA
#   hsize                   string                4     BYTE              
#   hnonsec                 integral              1     'h0               
#   hexcl                   integral              1     'h0               
#   hmaster                 integral              1     'd0               
#   htrans                  string                4     IDLE              
#   hwrite                  string                4     READ              
#   hreadyout               integral              1     'h0               
#   hresp                   string                4     OKAY              
#   hexokay                 integral              1     'h0               
#   hready                  integral              1     'h0               
#   noOfwaitStatesDetected  integral              32    'h0               
#   hrdata[0]               integral              32    'h0               
# ------------------------------------------------------------------------
# [15] run phase got m_tx haddr=0, mtx=2, htrans= 0 
# ------------------------------------------------------------------------
# Name                      Type                  Size  Value             
# ------------------------------------------------------------------------
# ahbMasterPacket           AhbMasterTransaction  -     @1763             
#   haddr                   integral              32    'h0               
#   hselx                   integral              2     'b0               
#   hburst                  string                6     SINGLE            
#   hmastlock               integral              1     'h0               
#   hprot                   string                18    NORMAL_SECURE_DATA
#   hsize                   string                4     BYTE              
#   hnonsec                 integral              1     'h0               
#   hexcl                   integral              1     'h0               
#   hmaster                 integral              1     'd0               
#   htrans                  string                4     IDLE              
#   hwrite                  string                4     READ              
#   hreadyout               integral              1     'h0               
#   hresp                   string                4     OKAY              
#   hexokay                 integral              1     'h0               
#   hready                  integral              1     'h0               
#   noOfwaitStatesDetected  integral              32    'h0               
#   hrdata[0]               integral              32    'h0               
# ------------------------------------------------------------------------
# ---------------------------------------------------------
# Name                Type                 Size  Value     
# ---------------------------------------------------------
# req                 AhbSlaveTransaction  -     @1627     
#   haddr             integral             32    'h0       
#   hselx             integral             2     'b0       
#   hburst            string               0     ""        
#   hmastlock         integral             1     'h0       
#   hprot             string               0     ""        
#   hsize             string               0     ""        
#   hnonsec           integral             1     'h0       
#   hexcl             integral             1     'h0       
#   hmaster           integral             1     'd0       
#   htrans            string               0     ""        
#   hwrite            string               4     READ      
#   hreadyout         integral             1     'h0       
#   hresp             string               0     ""        
#   hexokay           integral             1     'h0       
#   hready            integral             1     'h0       
#   choosePacketData  integral             1     'd0       
#   hwdata[0]         integral             32    'hae905c51
#   hwdata[1]         integral             32    'he7d6c5cb
#   hwdata[2]         integral             32    'hb21bb456
#   hwdata[3]         integral             32    'h421efe3f
#   hwdata[4]         integral             32    'hfbc6e3ad
#   hwdata[5]         integral             32    'hce4f7819
#   hwdata[6]         integral             32    'h92083988
#   hwdata[7]         integral             32    'h4d586b1 
#   hwdata[8]         integral             32    'he860972d
#   hwdata[9]         integral             32    'hc7eb5ba1
#   hwdata[10]        integral             32    'hf6851cd 
#   hwdata[11]        integral             32    'h47016dce
#   hwdata[12]        integral             32    'h76300987
#   hwdata[13]        integral             32    'h637e2996
#   hwdata[14]        integral             32    'h905baab9
#   hwdata[15]        integral             32    'h644c8bcf
#   hwstrb[0]         integral             4     'b0       
#   hwstrb[1]         integral             4     'b111     
#   hwstrb[2]         integral             4     'b111     
#   hwstrb[3]         integral             4     'b1110    
#   hwstrb[4]         integral             4     'b1101    
#   hwstrb[5]         integral             4     'b1110    
#   hwstrb[6]         integral             4     'b1000    
#   hwstrb[7]         integral             4     'b111     
#   hwstrb[8]         integral             4     'b0       
#   hwstrb[9]         integral             4     'b1       
#   hwstrb[10]        integral             4     'b0       
#   hwstrb[11]        integral             4     'b1001    
#   hwstrb[12]        integral             4     'b101     
#   hwstrb[13]        integral             4     'b1010    
#   hwstrb[14]        integral             4     'b1010    
#   hwstrb[15]        integral             4     'b101     
#   hrdata[0]         integral             32    'hf8db9420
#   hrdata[1]         integral             32    'h6c250aaa
#   hrdata[2]         integral             32    'h902a7382
#   hrdata[3]         integral             32    'hc34ccecb
#   hrdata[4]         integral             32    'hdec87b37
#   hrdata[5]         integral             32    'h439ea2e5
#   hrdata[6]         integral             32    'h873c9b1 
#   hrdata[7]         integral             32    'hdef71d8 
#   hrdata[8]         integral             32    'habe7569 
#   hrdata[9]         integral             32    'h5a293e85
#   hrdata[10]        integral             32    'h1cf4bbb2
#   hrdata[11]        integral             32    'h8aeee0e1
#   hrdata[12]        integral             32    'h1856c65f
#   hrdata[13]        integral             32    'hb3dd88ea
#   hrdata[14]        integral             32    'h5e697153
#   hrdata[15]        integral             32    'hbf1ab8fe
# ---------------------------------------------------------
# ---------------------------------------------------------
# Name                Type                 Size  Value     
# ---------------------------------------------------------
# req                 AhbSlaveTransaction  -     @1623     
#   haddr             integral             32    'h0       
#   hselx             integral             2     'b0       
#   hburst            string               0     ""        
#   hmastlock         integral             1     'h0       
#   hprot             string               0     ""        
#   hsize             string               0     ""        
#   hnonsec           integral             1     'h0       
#   hexcl             integral             1     'h0       
#   hmaster           integral             1     'd0       
#   htrans            string               0     ""        
#   hwrite            string               4     READ      
#   hreadyout         integral             1     'h0       
#   hresp             string               0     ""        
#   hexokay           integral             1     'h0       
#   hready            integral             1     'h0       
#   choosePacketData  integral             1     'd0       
#   hwdata[0]         integral             32    'hccf291f7
#   hwdata[1]         integral             32    'hb126519d
#   hwdata[2]         integral             32    'h4d7c8f89
#   hwdata[3]         integral             32    'h870320cb
#   hwdata[4]         integral             32    'hddb08da6
#   hwdata[5]         integral             32    'he262fbbd
#   hwdata[6]         integral             32    'h3dbe96cb
#   hwdata[7]         integral             32    'h2ca3e1e4
#   hwdata[8]         integral             32    'h7bf75377
#   hwdata[9]         integral             32    'h5da94b55
#   hwdata[10]        integral             32    'h7b6e507d
#   hwdata[11]        integral             32    'h4dd4d436
#   hwdata[12]        integral             32    'h49a389b0
#   hwdata[13]        integral             32    'h75e6bda 
#   hwdata[14]        integral             32    'hfde9130f
#   hwdata[15]        integral             32    'h984a2faf
#   hwstrb[0]         integral             4     'b1110    
#   hwstrb[1]         integral             4     'b111     
#   hwstrb[2]         integral             4     'b1100    
#   hwstrb[3]         integral             4     'b1100    
#   hwstrb[4]         integral             4     'b1110    
#   hwstrb[5]         integral             4     'b1000    
#   hwstrb[6]         integral             4     'b1001    
#   hwstrb[7]         integral             4     'b1011    
#   hwstrb[8]         integral             4     'b1011    
#   hwstrb[9]         integral             4     'b1111    
#   hwstrb[10]        integral             4     'b10      
#   hwstrb[11]        integral             4     'b1100    
#   hwstrb[12]        integral             4     'b0       
#   hwstrb[13]        integral             4     'b0       
#   hwstrb[14]        integral             4     'b1001    
#   hwstrb[15]        integral             4     'b10      
#   hrdata[0]         integral             32    'h2717bcfb
#   hrdata[1]         integral             32    'hcd4e4a02
#   hrdata[2]         integral             32    'hc961f002
#   hrdata[3]         integral             32    'hb305eaa8
#   hrdata[4]         integral             32    'hde54d362
#   hrdata[5]         integral             32    'h718dfad2
#   hrdata[6]         integral             32    'h14ecf703
#   hrdata[7]         integral             32    'h6f1cb41c
#   hrdata[8]         integral             32    'h34f0f217
#   hrdata[9]         integral             32    'h723a2290
#   hrdata[10]        integral             32    'hcf0f3ced
#   hrdata[11]        integral             32    'h2c1fc350
#   hrdata[12]        integral             32    'h90e8f37 
#   hrdata[13]        integral             32    'h2495acb3
#   hrdata[14]        integral             32    'h15d6ef2d
#   hrdata[15]        integral             32    'hffac24a7
# ---------------------------------------------------------
# UVM_INFO ../../src/hvlTop/masterAgent/masterSequences/AhbMasterSequence.sv(129) @ 15: uvm_test_top.swasthik.ahbMasterAgent[0].ahbMasterSequencer@@ahbMasterWriteSequence[0] [AHB] req is of type: AhbMasterTransaction
# *****************************************master sequence***********************************
# ----------------------------------------------------------------------------
# Name                      Type                  Size  Value                 
# ----------------------------------------------------------------------------
# req                       AhbMasterTransaction  -     @1635                 
#   haddr                   integral              32    'h2c                  
#   hselx                   integral              2     'b1                   
#   hburst                  string                5     INCR4                 
#   hmastlock               integral              1     'h1                   
#   hprot                   string                22    PRIVILEGED_SECURE_DATA
#   hsize                   string                4     WORD                  
#   hnonsec                 integral              1     'h0                   
#   hexcl                   integral              1     'h1                   
#   hmaster                 integral              1     1                     
#   htrans                  string                3     SEQ                   
#   hwrite                  string                5     WRITE                 
#   hreadyout               integral              1     'h0                   
#   hresp                   string                0     ""                    
#   hexokay                 integral              1     'h1                   
#   hready                  integral              1     'h0                   
#   noOfwaitStatesDetected  integral              32    'h0                   
#   hwdata[0]               integral              32    'h97c8847a            
#   hwdata[1]               integral              32    'hfdcb653f            
#   hwdata[2]               integral              32    'ha3fd3dd             
#   hwdata[3]               integral              32    'h7585563e            
#   hwstrb[0]               integral              4     'b1111                
#   hwstrb[1]               integral              4     'b1111                
#   hwstrb[2]               integral              4     'b1111                
#   hwstrb[3]               integral              4     'b1111                
#   busyControl[0]          integral              1     'h0                   
#   busyControl[1]          integral              1     'h0                   
#   busyControl[2]          integral              1     'h0                   
#   busyControl[3]          integral              1     'h0                   
# ----------------------------------------------------------------------------
# ********************************************************************************************
# UVM_INFO ../../src/hvlTop/masterAgent/masterSequences/AhbMasterSequence.sv(129) @ 15: uvm_test_top.swasthik.ahbMasterAgent[1].ahbMasterSequencer@@ahbMasterWriteSequence[1] [AHB] req is of type: AhbMasterTransaction
# *****************************************master sequence***********************************
# ----------------------------------------------------------------------------
# Name                      Type                  Size  Value                 
# ----------------------------------------------------------------------------
# req                       AhbMasterTransaction  -     @1631                 
#   haddr                   integral              32    'h2a0                 
#   hselx                   integral              2     'b1                   
#   hburst                  string                5     INCR4                 
#   hmastlock               integral              1     'h1                   
#   hprot                   string                22    PRIVILEGED_SECURE_DATA
#   hsize                   string                4     WORD                  
#   hnonsec                 integral              1     'h1                   
#   hexcl                   integral              1     'h0                   
#   hmaster                 integral              1     'd0                   
#   htrans                  string                3     SEQ                   
#   hwrite                  string                5     WRITE                 
#   hreadyout               integral              1     'h0                   
#   hresp                   string                0     ""                    
#   hexokay                 integral              1     'h0                   
#   hready                  integral              1     'h0                   
#   noOfwaitStatesDetected  integral              32    'h0                   
#   hwdata[0]               integral              32    'hbab5b601            
#   hwdata[1]               integral              32    'h5474a9ad            
#   hwdata[2]               integral              32    'hf6f987b3            
#   hwdata[3]               integral              32    'h4df9e0fb            
#   hwstrb[0]               integral              4     'b1111                
#   hwstrb[1]               integral              4     'b1111                
#   hwstrb[2]               integral              4     'b1111                
#   hwstrb[3]               integral              4     'b1111                
#   busyControl[0]          integral              1     'h0                   
#   busyControl[1]          integral              1     'h0                   
#   busyControl[2]          integral              1     'h0                   
#   busyControl[3]          integral              1     'h0                   
# ----------------------------------------------------------------------------
# ********************************************************************************************
# UVM_INFO ../../src/hvlTop/slaveAgent/AhbSlaveSequenceItemConverter.sv(90) @ 15: reporter [ahbSlaveSequeceItemconverterClass] -------------------------------------------------------------
# THE RUN PHASE IS 0
# CONNVERTER NO OF WAIT STATES IS 0
# (((((((((((((((SENT ACK)))))))))))))))
# UVM_INFO ../../src/hvlTop/slaveAgent/AhbSlaveSequenceItemConverter.sv(90) @ 15: reporter [ahbSlaveSequeceItemconverterClass] -------------------------------------------------------------
# THE RUN PHASE IS 0
# CONNVERTER NO OF WAIT STATES IS 0
# (((((((((((((((SENT ACK)))))))))))))))
# UVM_INFO ../../src/hvlTop/masterAgent/AhbMasterDriverProxy.sv(68) @ 15: uvm_test_top.swasthik.ahbMasterAgent[0].ahbMasterDriverProxy [AhbMasterDriverProxy] REQ-MASTERTX 
#  ----------------------------------------------------------------------------
# Name                      Type                  Size  Value                 
# ----------------------------------------------------------------------------
# req                       AhbMasterTransaction  -     @1635                 
#   haddr                   integral              32    'h2c                  
#   hselx                   integral              2     'b1                   
#   hburst                  string                5     INCR4                 
#   hmastlock               integral              1     'h1                   
#   hprot                   string                22    PRIVILEGED_SECURE_DATA
#   hsize                   string                4     WORD                  
#   hnonsec                 integral              1     'h0                   
#   hexcl                   integral              1     'h1                   
#   hmaster                 integral              1     1                     
#   htrans                  string                3     SEQ                   
#   hwrite                  string                5     WRITE                 
#   hreadyout               integral              1     'h0                   
#   hresp                   string                0     ""                    
#   hexokay                 integral              1     'h1                   
#   hready                  integral              1     'h0                   
#   noOfwaitStatesDetected  integral              32    'h0                   
#   hwdata[0]               integral              32    'h97c8847a            
#   hwdata[1]               integral              32    'hfdcb653f            
#   hwdata[2]               integral              32    'ha3fd3dd             
#   hwdata[3]               integral              32    'h7585563e            
#   hwstrb[0]               integral              4     'b1111                
#   hwstrb[1]               integral              4     'b1111                
#   hwstrb[2]               integral              4     'b1111                
#   hwstrb[3]               integral              4     'b1111                
#   busyControl[0]          integral              1     'h0                   
#   busyControl[1]          integral              1     'h0                   
#   busyControl[2]          integral              1     'h0                   
#   busyControl[3]          integral              1     'h0                   
# ----------------------------------------------------------------------------
# 
# ***************************IN DRIVER************************************************************************
# ----------------------------------------------------------------------------
# Name                      Type                  Size  Value                 
# ----------------------------------------------------------------------------
# req                       AhbMasterTransaction  -     @1635                 
#   haddr                   integral              32    'h2c                  
#   hselx                   integral              2     'b1                   
#   hburst                  string                5     INCR4                 
#   hmastlock               integral              1     'h1                   
#   hprot                   string                22    PRIVILEGED_SECURE_DATA
#   hsize                   string                4     WORD                  
#   hnonsec                 integral              1     'h0                   
#   hexcl                   integral              1     'h1                   
#   hmaster                 integral              1     1                     
#   htrans                  string                3     SEQ                   
#   hwrite                  string                5     WRITE                 
#   hreadyout               integral              1     'h0                   
#   hresp                   string                0     ""                    
#   hexokay                 integral              1     'h1                   
#   hready                  integral              1     'h0                   
#   noOfwaitStatesDetected  integral              32    'h0                   
#   hwdata[0]               integral              32    'h97c8847a            
#   hwdata[1]               integral              32    'hfdcb653f            
#   hwdata[2]               integral              32    'ha3fd3dd             
#   hwdata[3]               integral              32    'h7585563e            
#   hwstrb[0]               integral              4     'b1111                
#   hwstrb[1]               integral              4     'b1111                
#   hwstrb[2]               integral              4     'b1111                
#   hwstrb[3]               integral              4     'b1111                
#   busyControl[0]          integral              1     'h0                   
#   busyControl[1]          integral              1     'h0                   
#   busyControl[2]          integral              1     'h0                   
#   busyControl[3]          integral              1     'h0                   
# ----------------------------------------------------------------------------
# ***************************************************************************************************
# INSIDE BURST
# UVM_INFO ../../src/hvlTop/masterAgent/AhbMasterDriverProxy.sv(68) @ 15: uvm_test_top.swasthik.ahbMasterAgent[1].ahbMasterDriverProxy [AhbMasterDriverProxy] REQ-MASTERTX 
#  ----------------------------------------------------------------------------
# Name                      Type                  Size  Value                 
# ----------------------------------------------------------------------------
# req                       AhbMasterTransaction  -     @1631                 
#   haddr                   integral              32    'h2a0                 
#   hselx                   integral              2     'b1                   
#   hburst                  string                5     INCR4                 
#   hmastlock               integral              1     'h1                   
#   hprot                   string                22    PRIVILEGED_SECURE_DATA
#   hsize                   string                4     WORD                  
#   hnonsec                 integral              1     'h1                   
#   hexcl                   integral              1     'h0                   
#   hmaster                 integral              1     'd0                   
#   htrans                  string                3     SEQ                   
#   hwrite                  string                5     WRITE                 
#   hreadyout               integral              1     'h0                   
#   hresp                   string                0     ""                    
#   hexokay                 integral              1     'h0                   
#   hready                  integral              1     'h0                   
#   noOfwaitStatesDetected  integral              32    'h0                   
#   hwdata[0]               integral              32    'hbab5b601            
#   hwdata[1]               integral              32    'h5474a9ad            
#   hwdata[2]               integral              32    'hf6f987b3            
#   hwdata[3]               integral              32    'h4df9e0fb            
#   hwstrb[0]               integral              4     'b1111                
#   hwstrb[1]               integral              4     'b1111                
#   hwstrb[2]               integral              4     'b1111                
#   hwstrb[3]               integral              4     'b1111                
#   busyControl[0]          integral              1     'h0                   
#   busyControl[1]          integral              1     'h0                   
#   busyControl[2]          integral              1     'h0                   
#   busyControl[3]          integral              1     'h0                   
# ----------------------------------------------------------------------------
# 
# ***************************IN DRIVER************************************************************************
# ----------------------------------------------------------------------------
# Name                      Type                  Size  Value                 
# ----------------------------------------------------------------------------
# req                       AhbMasterTransaction  -     @1631                 
#   haddr                   integral              32    'h2a0                 
#   hselx                   integral              2     'b1                   
#   hburst                  string                5     INCR4                 
#   hmastlock               integral              1     'h1                   
#   hprot                   string                22    PRIVILEGED_SECURE_DATA
#   hsize                   string                4     WORD                  
#   hnonsec                 integral              1     'h1                   
#   hexcl                   integral              1     'h0                   
#   hmaster                 integral              1     'd0                   
#   htrans                  string                3     SEQ                   
#   hwrite                  string                5     WRITE                 
#   hreadyout               integral              1     'h0                   
#   hresp                   string                0     ""                    
#   hexokay                 integral              1     'h0                   
#   hready                  integral              1     'h0                   
#   noOfwaitStatesDetected  integral              32    'h0                   
#   hwdata[0]               integral              32    'hbab5b601            
#   hwdata[1]               integral              32    'h5474a9ad            
#   hwdata[2]               integral              32    'hf6f987b3            
#   hwdata[3]               integral              32    'h4df9e0fb            
#   hwstrb[0]               integral              4     'b1111                
#   hwstrb[1]               integral              4     'b1111                
#   hwstrb[2]               integral              4     'b1111                
#   hwstrb[3]               integral              4     'b1111                
#   busyControl[0]          integral              1     'h0                   
#   busyControl[1]          integral              1     'h0                   
#   busyControl[2]          integral              1     'h0                   
#   busyControl[3]          integral              1     'h0                   
# ----------------------------------------------------------------------------
# ***************************************************************************************************
# INSIDE BURST
# SLAVE SEQUENCE DONE 
# SLAVE SEQUENCE DONE 
# ** Info: THE REQ IS x for the slave 0
#    Time: 16 ns  Scope: HdlTop.ahbinterconnect.genblk5[0].genblk1[1] File: ../../src/hdlTop/interconnect/AhbInterconnect.sv Line: 191
# ** Info: THE GRANT IS x for the slave 0 addr is 672 for master 1
#    Time: 16 ns  Scope: HdlTop.ahbinterconnect.genblk5[0].genblk1[1] File: ../../src/hdlTop/interconnect/AhbInterconnect.sv Line: 192
# ** Info: THE REQ IS x for the slave 1
#    Time: 16 ns  Scope: HdlTop.ahbinterconnect.genblk5[1].genblk1[1] File: ../../src/hdlTop/interconnect/AhbInterconnect.sv Line: 191
# ** Info: THE GRANT IS x for the slave 1 addr is 672 for master 1
#    Time: 16 ns  Scope: HdlTop.ahbinterconnect.genblk5[1].genblk1[1] File: ../../src/hdlTop/interconnect/AhbInterconnect.sv Line: 192
# ** Info: THE REQ IS x for the slave 0
#    Time: 16 ns  Scope: HdlTop.ahbinterconnect.genblk5[0].genblk1[0] File: ../../src/hdlTop/interconnect/AhbInterconnect.sv Line: 191
# ** Info: THE GRANT IS x for the slave 0 addr is 44 for master 0
#    Time: 16 ns  Scope: HdlTop.ahbinterconnect.genblk5[0].genblk1[0] File: ../../src/hdlTop/interconnect/AhbInterconnect.sv Line: 192
# ** Info: THE REQ IS x for the slave 1
#    Time: 16 ns  Scope: HdlTop.ahbinterconnect.genblk5[1].genblk1[0] File: ../../src/hdlTop/interconnect/AhbInterconnect.sv Line: 191
# ** Info: THE GRANT IS x for the slave 1 addr is 44 for master 0
#    Time: 16 ns  Scope: HdlTop.ahbinterconnect.genblk5[1].genblk1[0] File: ../../src/hdlTop/interconnect/AhbInterconnect.sv Line: 192
# [16] master_request[1][0] = x , master_hmastlock[0] == 1
# [16] master_request[1][1] = x , master_hmastlock[1] == 1
# check locked_present = 0 , can_accept=1 slave_data_phase[s].valid = x  slave_hreadyout[s]=1
#                   16 3rd block can accept=1 slave=1
# slave_has_owner = 0 slave = 1 
# [16] master_request[0][0] = x , master_hmastlock[0] == 1
# [16] master_request[0][1] = x , master_hmastlock[1] == 1
# check locked_present = 0 , can_accept=1 slave_data_phase[s].valid = x  slave_hreadyout[s]=1
#                   16 3rd block can accept=1 slave=0
# slave_has_owner = 0 slave = 0 
# slave number 0 address 672
# slave number 0 address 44
# slave number 0 address 672
# slave number 0 address 44
# ** Info: THE REQ IS 11 for the slave 0
#    Time: 16 ns  Scope: HdlTop.ahbinterconnect.genblk5[0].genblk1[0] File: ../../src/hdlTop/interconnect/AhbInterconnect.sv Line: 191
# ** Info: THE GRANT IS x for the slave 0 addr is 44 for master 0
#    Time: 16 ns  Scope: HdlTop.ahbinterconnect.genblk5[0].genblk1[0] File: ../../src/hdlTop/interconnect/AhbInterconnect.sv Line: 192
# ** Info: THE REQ IS 11 for the slave 0
#    Time: 16 ns  Scope: HdlTop.ahbinterconnect.genblk5[0].genblk1[1] File: ../../src/hdlTop/interconnect/AhbInterconnect.sv Line: 191
# ** Info: THE GRANT IS x for the slave 0 addr is 672 for master 1
#    Time: 16 ns  Scope: HdlTop.ahbinterconnect.genblk5[0].genblk1[1] File: ../../src/hdlTop/interconnect/AhbInterconnect.sv Line: 192
# ** Info: THE REQ IS x for the slave 1
#    Time: 16 ns  Scope: HdlTop.ahbinterconnect.genblk5[1].genblk1[0] File: ../../src/hdlTop/interconnect/AhbInterconnect.sv Line: 191
# ** Info: THE GRANT IS x for the slave 1 addr is 44 for master 0
#    Time: 16 ns  Scope: HdlTop.ahbinterconnect.genblk5[1].genblk1[0] File: ../../src/hdlTop/interconnect/AhbInterconnect.sv Line: 192
# ** Info: THE REQ IS x for the slave 1
#    Time: 16 ns  Scope: HdlTop.ahbinterconnect.genblk5[1].genblk1[1] File: ../../src/hdlTop/interconnect/AhbInterconnect.sv Line: 191
# ** Info: THE GRANT IS x for the slave 1 addr is 672 for master 1
#    Time: 16 ns  Scope: HdlTop.ahbinterconnect.genblk5[1].genblk1[1] File: ../../src/hdlTop/interconnect/AhbInterconnect.sv Line: 192
# [16] master_request[0][0] = 1 , master_hmastlock[0] == 1
# check locked_present = 1 , can_accept=1 slave_data_phase[s].valid = x  slave_hreadyout[s]=1
#                   16 1st if block master_request[0][0] masterlock=0
#                   16 1st block grant 1
# ** Info: THE REQ IS 11 for the slave 0
#    Time: 16 ns  Scope: HdlTop.ahbinterconnect.genblk5[0].genblk1[0] File: ../../src/hdlTop/interconnect/AhbInterconnect.sv Line: 191
# ** Info: THE GRANT IS 1 for the slave 0 addr is 44 for master 0
#    Time: 16 ns  Scope: HdlTop.ahbinterconnect.genblk5[0].genblk1[0] File: ../../src/hdlTop/interconnect/AhbInterconnect.sv Line: 192
# ** Info: THE REQ IS 11 for the slave 0
#    Time: 16 ns  Scope: HdlTop.ahbinterconnect.genblk5[0].genblk1[1] File: ../../src/hdlTop/interconnect/AhbInterconnect.sv Line: 191
# ** Info: THE GRANT IS x for the slave 0 addr is 672 for master 1
#    Time: 16 ns  Scope: HdlTop.ahbinterconnect.genblk5[0].genblk1[1] File: ../../src/hdlTop/interconnect/AhbInterconnect.sv Line: 192
# ** Info: THE REQ IS x for the slave 1
#    Time: 16 ns  Scope: HdlTop.ahbinterconnect.genblk5[1].genblk1[0] File: ../../src/hdlTop/interconnect/AhbInterconnect.sv Line: 191
# ** Info: THE GRANT IS x for the slave 1 addr is 44 for master 0
#    Time: 16 ns  Scope: HdlTop.ahbinterconnect.genblk5[1].genblk1[0] File: ../../src/hdlTop/interconnect/AhbInterconnect.sv Line: 192
# ** Info: THE REQ IS x for the slave 1
#    Time: 16 ns  Scope: HdlTop.ahbinterconnect.genblk5[1].genblk1[1] File: ../../src/hdlTop/interconnect/AhbInterconnect.sv Line: 191
# ** Info: THE GRANT IS x for the slave 1 addr is 672 for master 1
#    Time: 16 ns  Scope: HdlTop.ahbinterconnect.genblk5[1].genblk1[1] File: ../../src/hdlTop/interconnect/AhbInterconnect.sv Line: 192
# last grant s=0 m=0 g==1
#                   16else hready 1 master [0] can_accept=1 oldest_is_ready=1
#                   16else hready 0 master [1] can_accept=0 oldest_is_ready=1
# ENTERED THIS BLOCK @16
# [16] slave_hwdata_stable[0] = x, slave_hwstrb_stable[0] = x
# [16] master_pipeline[0][master_wr_ptr[0]].haddr = 0
# slave number 0 address 44
# last grant s=0 m=0 g==1
#                   16else hready 1 master [0] can_accept=1 oldest_is_ready=1
#                   16else hready 0 master [1] can_accept=0 oldest_is_ready=1
#  1st hwdata = x
# [16] my_hwdata = x ahbSlaveInterface[0].haddr = 44
#  2nd hwdata = x
#  1st hwdata = x
# [16] my_hwdata = x ahbSlaveInterface[1].haddr = x
#  2nd hwdata = x
# ENTERED THIS BLOCK @16
# [16] slave_hwdata_stable[0] = x, slave_hwstrb_stable[0] = x
#                   25 first master_grant[slaveloop=0][masterloop=0]=1
# [25] current_owner[0] = 0
# [25] new_c_owner[0] = 0
# [25] my_slave = 0, my_read_owner = 0
# [25] my_slave = 1, my_read_owner = x
# [25] my_slave = 1, my_read_owner = x
#  time = 25, master = 0, slave = 0,  read_owner = 0
# 25 check slave_hreadyout[0] = 1
# last grant s=0 m=0 g==1
#                   25else hready 1 master [0] can_accept=1 oldest_is_ready=1
#                   25else hready 0 master [1] can_accept=0 oldest_is_ready=1
# ENTERED THIS BLOCK @25
# [25] slave_hwdata_stable[0] = x, slave_hwstrb_stable[0] = x
# [25] master_request[1][0] = x , master_hmastlock[0] == 1
# [25] master_request[1][1] = x , master_hmastlock[1] == 1
# check locked_present = 0 , can_accept=1 slave_data_phase[s].valid = x  slave_hreadyout[s]=1
#                   25 3rd block can accept=1 slave=1
# slave_has_owner = x slave = 1 
# [25] master_request[0][0] = 1 , master_hmastlock[0] == 1
# check locked_present = 1 , can_accept=1 slave_data_phase[s].valid = 1  slave_hreadyout[s]=1
#                   25 1st if block master_request[0][0] masterlock=0
#                   25 1st block grant 1
# ** Info: THE REQ IS 11 for the slave 0
#    Time: 25 ns  Scope: HdlTop.ahbinterconnect.genblk5[0].genblk1[0] File: ../../src/hdlTop/interconnect/AhbInterconnect.sv Line: 191
# ** Info: THE GRANT IS 1 for the slave 0 addr is 44 for master 0
#    Time: 25 ns  Scope: HdlTop.ahbinterconnect.genblk5[0].genblk1[0] File: ../../src/hdlTop/interconnect/AhbInterconnect.sv Line: 192
# ** Info: THE REQ IS 11 for the slave 0
#    Time: 25 ns  Scope: HdlTop.ahbinterconnect.genblk5[0].genblk1[1] File: ../../src/hdlTop/interconnect/AhbInterconnect.sv Line: 191
# ** Info: THE GRANT IS x for the slave 0 addr is 672 for master 1
#    Time: 25 ns  Scope: HdlTop.ahbinterconnect.genblk5[0].genblk1[1] File: ../../src/hdlTop/interconnect/AhbInterconnect.sv Line: 192
# ** Info: THE REQ IS x for the slave 1
#    Time: 25 ns  Scope: HdlTop.ahbinterconnect.genblk5[1].genblk1[0] File: ../../src/hdlTop/interconnect/AhbInterconnect.sv Line: 191
# ** Info: THE GRANT IS x for the slave 1 addr is 44 for master 0
#    Time: 25 ns  Scope: HdlTop.ahbinterconnect.genblk5[1].genblk1[0] File: ../../src/hdlTop/interconnect/AhbInterconnect.sv Line: 192
# ** Info: THE REQ IS x for the slave 1
#    Time: 25 ns  Scope: HdlTop.ahbinterconnect.genblk5[1].genblk1[1] File: ../../src/hdlTop/interconnect/AhbInterconnect.sv Line: 191
# ** Info: THE GRANT IS x for the slave 1 addr is 672 for master 1
#    Time: 25 ns  Scope: HdlTop.ahbinterconnect.genblk5[1].genblk1[1] File: ../../src/hdlTop/interconnect/AhbInterconnect.sv Line: 192
# 25 check slave_hreadyout[0] = 1
# last grant s=0 m=0 g==1
#                   25else hready 1 master [0] can_accept=1 oldest_is_ready=1
#                   25else hready 0 master [1] can_accept=0 oldest_is_ready=1
# [25] master_request[0][0] = 1 , master_hmastlock[0] == 1
# check locked_present = 1 , can_accept=1 slave_data_phase[s].valid = 1  slave_hreadyout[s]=1
#                   25 1st if block master_request[0][1] masterlock=1
#                   25 1st block grant 1
# ** Info: THE REQ IS 11 for the slave 0
#    Time: 25 ns  Scope: HdlTop.ahbinterconnect.genblk5[0].genblk1[0] File: ../../src/hdlTop/interconnect/AhbInterconnect.sv Line: 191
# ** Info: THE GRANT IS x for the slave 0 addr is 44 for master 0
#    Time: 25 ns  Scope: HdlTop.ahbinterconnect.genblk5[0].genblk1[0] File: ../../src/hdlTop/interconnect/AhbInterconnect.sv Line: 192
# ** Info: THE REQ IS 11 for the slave 0
#    Time: 25 ns  Scope: HdlTop.ahbinterconnect.genblk5[0].genblk1[1] File: ../../src/hdlTop/interconnect/AhbInterconnect.sv Line: 191
# ** Info: THE GRANT IS 1 for the slave 0 addr is 672 for master 1
#    Time: 25 ns  Scope: HdlTop.ahbinterconnect.genblk5[0].genblk1[1] File: ../../src/hdlTop/interconnect/AhbInterconnect.sv Line: 192
# ** Info: THE REQ IS x for the slave 1
#    Time: 25 ns  Scope: HdlTop.ahbinterconnect.genblk5[1].genblk1[0] File: ../../src/hdlTop/interconnect/AhbInterconnect.sv Line: 191
# ** Info: THE GRANT IS x for the slave 1 addr is 44 for master 0
#    Time: 25 ns  Scope: HdlTop.ahbinterconnect.genblk5[1].genblk1[0] File: ../../src/hdlTop/interconnect/AhbInterconnect.sv Line: 192
# ** Info: THE REQ IS x for the slave 1
#    Time: 25 ns  Scope: HdlTop.ahbinterconnect.genblk5[1].genblk1[1] File: ../../src/hdlTop/interconnect/AhbInterconnect.sv Line: 191
# ** Info: THE GRANT IS x for the slave 1 addr is 672 for master 1
#    Time: 25 ns  Scope: HdlTop.ahbinterconnect.genblk5[1].genblk1[1] File: ../../src/hdlTop/interconnect/AhbInterconnect.sv Line: 192
# 25 check slave_hreadyout[0] = 1
#                   25else hready 0 master [0] can_accept=0 oldest_is_ready=1
# last grant s=0 m=1 g==1
#                   25else hready 1 master [1] can_accept=1 oldest_is_ready=1
# ENTERED THIS BLOCK @25
# [25] slave_hwdata_stable[0] = x, slave_hwstrb_stable[0] = x
# [25] master_pipeline[1][master_wr_ptr[1]].haddr = 0
# slave number 0 address 672
# 25 check slave_hreadyout[0] = 1
#                   25else hready 0 master [0] can_accept=0 oldest_is_ready=1
# last grant s=0 m=1 g==1
#                   25else hready 1 master [1] can_accept=1 oldest_is_ready=1
#  1st hwdata = x
# [25] my_hwdata = x ahbSlaveInterface[0].haddr = 672
#  2nd hwdata = x
#  1st hwdata = x
# [25] my_hwdata = x ahbSlaveInterface[1].haddr = x
#  2nd hwdata = x
# DRIVER
# ishika 25 haddr = x
# [25] from master monitor = haddr=44, hwdata = x, hrdata = x, hwstrb=x 
# ** Warning: (vsim-8233) ../../src/hvlTop/masterAgent/AhbMasterSequenceItemConverter.sv(167): Index 16 into array dimension [0:0] is out of bounds.
#    Time: 25 ns  Iteration: 11  Region: /uvm_pkg::uvm_task_phase::execute
# ** Warning: (vsim-8233) ../../src/hvlTop/masterAgent/AhbMasterSequenceItemConverter.sv(167): Index 15 into array dimension [0:0] is out of bounds.
#    Time: 25 ns  Iteration: 11  Region: /uvm_pkg::uvm_task_phase::execute
# ** Warning: (vsim-8233) ../../src/hvlTop/masterAgent/AhbMasterSequenceItemConverter.sv(167): Index 14 into array dimension [0:0] is out of bounds.
#    Time: 25 ns  Iteration: 11  Region: /uvm_pkg::uvm_task_phase::execute
# ** Warning: (vsim-8233) ../../src/hvlTop/masterAgent/AhbMasterSequenceItemConverter.sv(167): Index 13 into array dimension [0:0] is out of bounds.
#    Time: 25 ns  Iteration: 11  Region: /uvm_pkg::uvm_task_phase::execute
# ** Warning: (vsim-8233) ../../src/hvlTop/masterAgent/AhbMasterSequenceItemConverter.sv(167): Index 12 into array dimension [0:0] is out of bounds.
#    Time: 25 ns  Iteration: 11  Region: /uvm_pkg::uvm_task_phase::execute
# ** Warning: (vsim-8233) ../../src/hvlTop/masterAgent/AhbMasterSequenceItemConverter.sv(167): Index 11 into array dimension [0:0] is out of bounds.
#    Time: 25 ns  Iteration: 11  Region: /uvm_pkg::uvm_task_phase::execute
# ** Warning: (vsim-8233) ../../src/hvlTop/masterAgent/AhbMasterSequenceItemConverter.sv(167): Index 10 into array dimension [0:0] is out of bounds.
#    Time: 25 ns  Iteration: 11  Region: /uvm_pkg::uvm_task_phase::execute
# ** Warning: (vsim-8233) ../../src/hvlTop/masterAgent/AhbMasterSequenceItemConverter.sv(167): Index 9 into array dimension [0:0] is out of bounds.
#    Time: 25 ns  Iteration: 11  Region: /uvm_pkg::uvm_task_phase::execute
# ** Warning: (vsim-8233) ../../src/hvlTop/masterAgent/AhbMasterSequenceItemConverter.sv(167): Index 8 into array dimension [0:0] is out of bounds.
#    Time: 25 ns  Iteration: 11  Region: /uvm_pkg::uvm_task_phase::execute
# ** Warning: (vsim-8233) ../../src/hvlTop/masterAgent/AhbMasterSequenceItemConverter.sv(167): Index 7 into array dimension [0:0] is out of bounds.
#    Time: 25 ns  Iteration: 11  Region: /uvm_pkg::uvm_task_phase::execute
# ** Warning: (vsim-8233) ../../src/hvlTop/masterAgent/AhbMasterSequenceItemConverter.sv(167): Index 6 into array dimension [0:0] is out of bounds.
#    Time: 25 ns  Iteration: 11  Region: /uvm_pkg::uvm_task_phase::execute
# ** Warning: (vsim-8233) ../../src/hvlTop/masterAgent/AhbMasterSequenceItemConverter.sv(167): Index 5 into array dimension [0:0] is out of bounds.
#    Time: 25 ns  Iteration: 11  Region: /uvm_pkg::uvm_task_phase::execute
# ** Warning: (vsim-8233) ../../src/hvlTop/masterAgent/AhbMasterSequenceItemConverter.sv(167): Index 4 into array dimension [0:0] is out of bounds.
#    Time: 25 ns  Iteration: 11  Region: /uvm_pkg::uvm_task_phase::execute
# ** Warning: (vsim-8233) ../../src/hvlTop/masterAgent/AhbMasterSequenceItemConverter.sv(167): Index 3 into array dimension [0:0] is out of bounds.
#    Time: 25 ns  Iteration: 11  Region: /uvm_pkg::uvm_task_phase::execute
# ** Warning: (vsim-8233) ../../src/hvlTop/masterAgent/AhbMasterSequenceItemConverter.sv(167): Index 2 into array dimension [0:0] is out of bounds.
#    Time: 25 ns  Iteration: 11  Region: /uvm_pkg::uvm_task_phase::execute
# UVM_INFO ../../src/hvlTop/masterAgent/AhbMasterMonitorProxy.sv(72) @ 25: uvm_test_top.swasthik.ahbMasterAgent[0].ahbMasterMonitorProxy [AhbMasterMonitorProxy] Sending packet via analysis_port: , 
#  -----------------------------------------------------------
# Name                      Type                  Size  Value
# -----------------------------------------------------------
# ahbMasterPacket           AhbMasterTransaction  -     @1769
#   haddr                   integral              32    'h0  
#   hselx                   integral              2     'b0  
#   hburst                  string                0     ""   
#   hmastlock               integral              1     'h0  
#   hprot                   string                0     ""   
#   hsize                   string                0     ""   
#   hnonsec                 integral              1     'h0  
#   hexcl                   integral              1     'h0  
#   hmaster                 integral              1     'd0  
#   htrans                  string                4     IDLE 
#   hwrite                  string                4     READ 
#   hreadyout               integral              1     'h0  
#   hresp                   string                4     OKAY 
#   hexokay                 integral              1     'h0  
#   hready                  integral              1     'h0  
#   noOfwaitStatesDetected  integral              32    'h0  
#   hrdata[0]               integral              32    'h0  
#   hrdata[1]               integral              32    'h0  
# -----------------------------------------------------------
# 
# UVM_INFO ../../src/hvlTop/masterAgent/AhbMasterCoverage.sv(107) @ 25: uvm_test_top.swasthik.ahbMasterAgent[0].ahbMasterCoverage [AhbMasterCoverage] Before calling SAMPLE METHOD
# UVM_INFO ../../src/hvlTop/masterAgent/AhbMasterCoverage.sv(109) @ 25: uvm_test_top.swasthik.ahbMasterAgent[0].ahbMasterCoverage [AhbMasterCoverage] After calling SAMPLE METHOD
# HEY I AM INSIDE BURST
# ishika 25 haddr = 0
# [25] from slave  monitor = haddr=44, hwdata = x, hrdata = x, hwstrb = x 
# ** Warning: (vsim-8233) ../../src/hvlTop/slaveAgent/AhbSlaveSequenceItemConverter.sv(159): Index 16 into empty array is out of bounds.
#    Time: 25 ns  Iteration: 11  Region: /uvm_pkg::uvm_task_phase::execute
# ** Warning: (vsim-8233) ../../src/hvlTop/slaveAgent/AhbSlaveSequenceItemConverter.sv(159): Index 15 into empty array is out of bounds.
#    Time: 25 ns  Iteration: 11  Region: /uvm_pkg::uvm_task_phase::execute
# ** Warning: (vsim-8233) ../../src/hvlTop/slaveAgent/AhbSlaveSequenceItemConverter.sv(159): Index 14 into empty array is out of bounds.
#    Time: 25 ns  Iteration: 11  Region: /uvm_pkg::uvm_task_phase::execute
# ** Warning: (vsim-8233) ../../src/hvlTop/slaveAgent/AhbSlaveSequenceItemConverter.sv(159): Index 13 into empty array is out of bounds.
#    Time: 25 ns  Iteration: 11  Region: /uvm_pkg::uvm_task_phase::execute
# ** Warning: (vsim-8233) ../../src/hvlTop/slaveAgent/AhbSlaveSequenceItemConverter.sv(159): Index 12 into empty array is out of bounds.
#    Time: 25 ns  Iteration: 11  Region: /uvm_pkg::uvm_task_phase::execute
# ** Warning: (vsim-8233) ../../src/hvlTop/slaveAgent/AhbSlaveSequenceItemConverter.sv(159): Index 11 into empty array is out of bounds.
#    Time: 25 ns  Iteration: 11  Region: /uvm_pkg::uvm_task_phase::execute
# ** Warning: (vsim-8233) ../../src/hvlTop/slaveAgent/AhbSlaveSequenceItemConverter.sv(159): Index 10 into empty array is out of bounds.
#    Time: 25 ns  Iteration: 11  Region: /uvm_pkg::uvm_task_phase::execute
# ** Warning: (vsim-8233) ../../src/hvlTop/slaveAgent/AhbSlaveSequenceItemConverter.sv(159): Index 9 into empty array is out of bounds.
#    Time: 25 ns  Iteration: 11  Region: /uvm_pkg::uvm_task_phase::execute
# ** Warning: (vsim-8233) ../../src/hvlTop/slaveAgent/AhbSlaveSequenceItemConverter.sv(159): Index 8 into empty array is out of bounds.
#    Time: 25 ns  Iteration: 11  Region: /uvm_pkg::uvm_task_phase::execute
# ** Warning: (vsim-8233) ../../src/hvlTop/slaveAgent/AhbSlaveSequenceItemConverter.sv(159): Index 7 into empty array is out of bounds.
#    Time: 25 ns  Iteration: 11  Region: /uvm_pkg::uvm_task_phase::execute
# ** Warning: (vsim-8233) ../../src/hvlTop/slaveAgent/AhbSlaveSequenceItemConverter.sv(159): Index 6 into empty array is out of bounds.
#    Time: 25 ns  Iteration: 11  Region: /uvm_pkg::uvm_task_phase::execute
# ** Warning: (vsim-8233) ../../src/hvlTop/slaveAgent/AhbSlaveSequenceItemConverter.sv(159): Index 5 into empty array is out of bounds.
#    Time: 25 ns  Iteration: 11  Region: /uvm_pkg::uvm_task_phase::execute
# ** Warning: (vsim-8233) ../../src/hvlTop/slaveAgent/AhbSlaveSequenceItemConverter.sv(159): Index 4 into empty array is out of bounds.
#    Time: 25 ns  Iteration: 11  Region: /uvm_pkg::uvm_task_phase::execute
# ** Warning: (vsim-8233) ../../src/hvlTop/slaveAgent/AhbSlaveSequenceItemConverter.sv(159): Index 3 into empty array is out of bounds.
#    Time: 25 ns  Iteration: 11  Region: /uvm_pkg::uvm_task_phase::execute
# ** Warning: (vsim-8233) ../../src/hvlTop/slaveAgent/AhbSlaveSequenceItemConverter.sv(159): Index 2 into empty array is out of bounds.
#    Time: 25 ns  Iteration: 11  Region: /uvm_pkg::uvm_task_phase::execute
# ** Warning: (vsim-8233) ../../src/hvlTop/slaveAgent/AhbSlaveSequenceItemConverter.sv(159): Index 1 into empty array is out of bounds.
#    Time: 25 ns  Iteration: 11  Region: /uvm_pkg::uvm_task_phase::execute
# UVM_INFO ../../src/hvlTop/slaveAgent/AhbSlaveMonitorProxy.sv(74) @ 25: uvm_test_top.swasthik.ahbSlaveAgent[0].ahbSlaveMonitorProxy [AhbSlaveMonitorProxy] Sending packet via analysis_port: , 
#  -----------------------------------------------------------------
# Name                Type                 Size  Value             
# -----------------------------------------------------------------
# slave Packet        AhbSlaveTransaction  -     @1773             
#   haddr             integral             32    'h0               
#   hselx             integral             2     'b0               
#   hburst            string               6     SINGLE            
#   hmastlock         integral             1     'h0               
#   hprot             string               18    NORMAL_SECURE_DATA
#   hsize             string               4     BYTE              
#   hnonsec           integral             1     'h0               
#   hexcl             integral             1     'h0               
#   hmaster           integral             1     'd0               
#   htrans            string               4     IDLE              
#   hwrite            string               4     READ              
#   hreadyout         integral             1     'h1               
#   hresp             string               0     ""                
#   hexokay           integral             1     'h0               
#   hready            integral             1     'h0               
#   choosePacketData  integral             1     'd0               
#   hrdata[0]         integral             32    'h0               
# -----------------------------------------------------------------
# 
# UVM_INFO ../../src/hvlTop/slaveAgent/AhbSlaveCoverage.sv(39) @ 25: uvm_test_top.swasthik.ahbSlaveAgent[0].ahbSlaveCoverage [AhbSlaveCoverage] AHB SLAVE COVERAGE
# CONNVERTER NO OF WAIT STATES IS 0
#                   25new call 0
#                   25old one done 0 
# [25] run phase got m_tx haddr=0, mtx=2, htrans= 0 
# -----------------------------------------------------------
# Name                      Type                  Size  Value
# -----------------------------------------------------------
# ahbMasterPacket           AhbMasterTransaction  -     @1769
#   haddr                   integral              32    'h0  
#   hselx                   integral              2     'b0  
#   hburst                  string                0     ""   
#   hmastlock               integral              1     'h0  
#   hprot                   string                0     ""   
#   hsize                   string                0     ""   
#   hnonsec                 integral              1     'h0  
#   hexcl                   integral              1     'h0  
#   hmaster                 integral              1     'd0  
#   htrans                  string                4     IDLE 
#   hwrite                  string                4     READ 
#   hreadyout               integral              1     'h0  
#   hresp                   string                4     OKAY 
#   hexokay                 integral              1     'h0  
#   hready                  integral              1     'h0  
#   noOfwaitStatesDetected  integral              32    'h0  
#   hrdata[0]               integral              32    'h0  
#   hrdata[1]               integral              32    'h0  
# -----------------------------------------------------------
# run phase got s_tx
# -----------------------------------------------------------------
# Name                Type                 Size  Value             
# -----------------------------------------------------------------
# slave Packet        AhbSlaveTransaction  -     @1773             
#   haddr             integral             32    'h0               
#   hselx             integral             2     'b0               
#   hburst            string               6     SINGLE            
#   hmastlock         integral             1     'h0               
#   hprot             string               18    NORMAL_SECURE_DATA
#   hsize             string               4     BYTE              
#   hnonsec           integral             1     'h0               
#   hexcl             integral             1     'h0               
#   hmaster           integral             1     'd0               
#   htrans            string               4     IDLE              
#   hwrite            string               4     READ              
#   hreadyout         integral             1     'h1               
#   hresp             string               0     ""                
#   hexokay           integral             1     'h0               
#   hready            integral             1     'h0               
#   choosePacketData  integral             1     'd0               
#   hrdata[0]         integral             32    'h0               
# -----------------------------------------------------------------
# ENTERED THIS BLOCK @25
# ENTERED THIS BLOCK @25
# [25] slave_hwdata_stable[0] = 97c8847a, slave_hwstrb_stable[0] = x
#  1st hwdata = 97c8847a
# [25] my_hwdata = 97c8847a ahbSlaveInterface[0].haddr = 672
#  2nd hwdata = 97c8847a
#  1st hwdata = x
# [25] my_hwdata = x ahbSlaveInterface[1].haddr = x
#  2nd hwdata = x
# ** Info: THE REQ IS 11 for the slave 0
#    Time: 26 ns  Scope: HdlTop.ahbinterconnect.genblk5[0].genblk1[0] File: ../../src/hdlTop/interconnect/AhbInterconnect.sv Line: 191
# ** Info: THE GRANT IS x for the slave 0 addr is 48 for master 0
#    Time: 26 ns  Scope: HdlTop.ahbinterconnect.genblk5[0].genblk1[0] File: ../../src/hdlTop/interconnect/AhbInterconnect.sv Line: 192
# ** Info: THE REQ IS x for the slave 1
#    Time: 26 ns  Scope: HdlTop.ahbinterconnect.genblk5[1].genblk1[0] File: ../../src/hdlTop/interconnect/AhbInterconnect.sv Line: 191
# ** Info: THE GRANT IS x for the slave 1 addr is 48 for master 0
#    Time: 26 ns  Scope: HdlTop.ahbinterconnect.genblk5[1].genblk1[0] File: ../../src/hdlTop/interconnect/AhbInterconnect.sv Line: 192
# ENTERED THIS BLOCK @26
# ENTERED THIS BLOCK @26
# [26] slave_hwdata_stable[0] = 97c8847a, slave_hwstrb_stable[0] = 15
# [26] master_request[1][0] = x , master_hmastlock[0] == 1
# [26] master_request[1][1] = x , master_hmastlock[1] == 1
# check locked_present = 0 , can_accept=1 slave_data_phase[s].valid = x  slave_hreadyout[s]=1
#                   26 3rd block can accept=1 slave=1
# slave_has_owner = x slave = 1 
# [26] master_request[0][0] = 1 , master_hmastlock[0] == 1
# check locked_present = 1 , can_accept=1 slave_data_phase[s].valid = 1  slave_hreadyout[s]=1
#                   26 1st if block master_request[0][0] masterlock=0
#                   26 1st block grant 1
# slave number 0 address 48
# slave number 0 address 48
# ** Info: THE REQ IS 11 for the slave 0
#    Time: 26 ns  Scope: HdlTop.ahbinterconnect.genblk5[0].genblk1[0] File: ../../src/hdlTop/interconnect/AhbInterconnect.sv Line: 191
# ** Info: THE GRANT IS 1 for the slave 0 addr is 48 for master 0
#    Time: 26 ns  Scope: HdlTop.ahbinterconnect.genblk5[0].genblk1[0] File: ../../src/hdlTop/interconnect/AhbInterconnect.sv Line: 192
# ** Info: THE REQ IS 11 for the slave 0
#    Time: 26 ns  Scope: HdlTop.ahbinterconnect.genblk5[0].genblk1[1] File: ../../src/hdlTop/interconnect/AhbInterconnect.sv Line: 191
# ** Info: THE GRANT IS x for the slave 0 addr is 672 for master 1
#    Time: 26 ns  Scope: HdlTop.ahbinterconnect.genblk5[0].genblk1[1] File: ../../src/hdlTop/interconnect/AhbInterconnect.sv Line: 192
# ** Info: THE REQ IS x for the slave 1
#    Time: 26 ns  Scope: HdlTop.ahbinterconnect.genblk5[1].genblk1[0] File: ../../src/hdlTop/interconnect/AhbInterconnect.sv Line: 191
# ** Info: THE GRANT IS x for the slave 1 addr is 48 for master 0
#    Time: 26 ns  Scope: HdlTop.ahbinterconnect.genblk5[1].genblk1[0] File: ../../src/hdlTop/interconnect/AhbInterconnect.sv Line: 192
# ** Info: THE REQ IS x for the slave 1
#    Time: 26 ns  Scope: HdlTop.ahbinterconnect.genblk5[1].genblk1[1] File: ../../src/hdlTop/interconnect/AhbInterconnect.sv Line: 191
# ** Info: THE GRANT IS x for the slave 1 addr is 672 for master 1
#    Time: 26 ns  Scope: HdlTop.ahbinterconnect.genblk5[1].genblk1[1] File: ../../src/hdlTop/interconnect/AhbInterconnect.sv Line: 192
# 26 check slave_hreadyout[0] = 1
# last grant s=0 m=0 g==1
#                   26else hready 1 master [0] can_accept=1 oldest_is_ready=1
#                   26else hready 0 master [1] can_accept=0 oldest_is_ready=1
# ENTERED THIS BLOCK @26
# [26] slave_hwdata_stable[0] = 97c8847a, slave_hwstrb_stable[0] = 15
# [26] master_pipeline[0][master_wr_ptr[0]].haddr = 0
# slave number 0 address 48
#  1st hwdata = 97c8847a
# [26] my_hwdata = 97c8847a ahbSlaveInterface[0].haddr = 672
#  2nd hwdata = 97c8847a
#  1st hwdata = x
# [26] my_hwdata = x ahbSlaveInterface[1].haddr = x
#  2nd hwdata = x
# 26 check slave_hreadyout[0] = 1
# last grant s=0 m=0 g==1
#                   26else hready 1 master [0] can_accept=1 oldest_is_ready=1
#                   26else hready 0 master [1] can_accept=0 oldest_is_ready=1
#  1st hwdata = 97c8847a
# [26] my_hwdata = 97c8847a ahbSlaveInterface[0].haddr = 48
#  2nd hwdata = 97c8847a
#  1st hwdata = x
# [26] my_hwdata = x ahbSlaveInterface[1].haddr = x
#  2nd hwdata = x
# [35] my_slave = 1, my_read_owner = x
# [35] my_slave = 1, my_read_owner = x
#                   35 first master_grant[slaveloop=0][masterloop=0]=1
# [35] current_owner[0] = 0
# [35] new_c_owner[0] = 0
# [35] my_slave = 0, my_read_owner = 0
# DRIVER
# ishika 35 haddr = 2c
# [35] from master monitor = haddr=48, hwdata = 97c8847a, hrdata = x, hwstrb=15 
# ** Warning: (vsim-8233) ../../src/hvlTop/masterAgent/AhbMasterSequenceItemConverter.sv(167): Index 16 into array dimension [0:1] is out of bounds.
#    Time: 35 ns  Iteration: 3  Region: /uvm_pkg::uvm_task_phase::execute
# ** Warning: (vsim-8233) ../../src/hvlTop/masterAgent/AhbMasterSequenceItemConverter.sv(167): Index 15 into array dimension [0:1] is out of bounds.
#    Time: 35 ns  Iteration: 3  Region: /uvm_pkg::uvm_task_phase::execute
# ** Warning: (vsim-8233) ../../src/hvlTop/masterAgent/AhbMasterSequenceItemConverter.sv(167): Index 14 into array dimension [0:1] is out of bounds.
#    Time: 35 ns  Iteration: 3  Region: /uvm_pkg::uvm_task_phase::execute
# ** Warning: (vsim-8233) ../../src/hvlTop/masterAgent/AhbMasterSequenceItemConverter.sv(167): Index 13 into array dimension [0:1] is out of bounds.
#    Time: 35 ns  Iteration: 3  Region: /uvm_pkg::uvm_task_phase::execute
# ** Warning: (vsim-8233) ../../src/hvlTop/masterAgent/AhbMasterSequenceItemConverter.sv(167): Index 12 into array dimension [0:1] is out of bounds.
#    Time: 35 ns  Iteration: 3  Region: /uvm_pkg::uvm_task_phase::execute
# ** Warning: (vsim-8233) ../../src/hvlTop/masterAgent/AhbMasterSequenceItemConverter.sv(167): Index 11 into array dimension [0:1] is out of bounds.
#    Time: 35 ns  Iteration: 3  Region: /uvm_pkg::uvm_task_phase::execute
# ** Warning: (vsim-8233) ../../src/hvlTop/masterAgent/AhbMasterSequenceItemConverter.sv(167): Index 10 into array dimension [0:1] is out of bounds.
#    Time: 35 ns  Iteration: 3  Region: /uvm_pkg::uvm_task_phase::execute
