# vsim -vopt work.HvlTop work.HdlTop -voptargs="+acc=npr" -sv_seed random -assertdebug "+UVM_TESTNAME=AhbLength16WriteFollowedByReadTest" "+UVM_VERBOSITY=UVM_HIGH" "+define+" -l AhbLength16WriteFollowedByReadTest/AhbLength16WriteFollowedByReadTest.log -sva -coverage -c -do "log -r /*; add wave -r /*; coverage save -onexit -assert -directive -cvg -codeAll AhbLength16WriteFollowedByReadTest/AhbLength16WriteFollowedByReadTest_coverage.ucdb; run -all; exit" -wlf AhbLength16WriteFollowedByReadTest/waveform.wlf 
# Start time: 17:53:52 on May 07,2026
# ** Note: (vsim-3812) Design is being optimized...
# ** Warning: ../../src/hdlTop/interconnect/AhbInterconnect.sv(226): (vopt-2182) 'slave_data_phase[0][0]' might be read before written in always_comb or always @* block.
# ** Warning: ../../src/hdlTop/interconnect/AhbInterconnect.sv(226): (vopt-2182) 'slave_data_phase[1][0]' might be read before written in always_comb or always @* block.
# ** Warning: ../../src/hdlTop/masterAgentBFM/AhbMasterAgentBFM.sv(41): (vopt-2685) [TFMPC] - Too few port connections for 'ahbMasterMonitorBFM'.  Expected 20, found 19.
# ** Warning: ../../src/hdlTop/masterAgentBFM/AhbMasterAgentBFM.sv(41): (vopt-2718) [TFMPC] - Missing connection for port 'hselx'.
# ** Warning: ../../src/hdlTop/masterAgentBFM/AhbMasterAgentBFM.sv(41): (vopt-2685) [TFMPC] - Too few port connections for 'ahbMasterMonitorBFM'.  Expected 20, found 19.
# ** Warning: ../../src/hdlTop/masterAgentBFM/AhbMasterAgentBFM.sv(41): (vopt-2718) [TFMPC] - Missing connection for port 'hselx'.
# ** Warning: ../../src/hvlTop/environment/AhbScoreboard.sv(262): (vopt-2897) Using non-standard foreach loop variable list syntax.
# ** Warning: ../../src/hvlTop/environment/AhbScoreboard.sv(262): (vopt-2897) Using non-standard foreach loop variable list syntax.
# ** Warning: ../../src/hvlTop/tb/test/AhbBaseTest.sv(63): (vopt-2240) Treating stand-alone use of function 'randomize' as an implicit VOID cast.
# //  Questa Sim
# //  Version 10.6c linux Jul 25 2017
# //
# //  Copyright 1991-2017 Mentor Graphics Corporation
# //  All Rights Reserved.
# //
# //  QuestaSim and its associated documentation contain trade
# //  secrets and commercial or financial information that are the property of
# //  Mentor Graphics Corporation and are privileged, confidential,
# //  and exempt from disclosure under the Freedom of Information Act,
# //  5 U.S.C. Section 552. Furthermore, this information
# //  is prohibited from disclosure under the Trade Secrets Act,
# //  18 U.S.C. Section 1905.
# //
# Loading sv_std.std
# Loading work.AhbMasterDriverBFM(fast)
# Loading work.AhbSlaveMonitorBFM(fast)
# Loading work.AhbGlobalPackage(fast)
# Loading mtiUvm.uvm_pkg
# Loading work.AhbSlavePackage(fast)
# Loading work.AhbMasterPackage(fast)
# Loading work.AhbEnvironmentPackage(fast)
# Loading work.AhbSlaveSequencePackage(fast)
# Loading work.AhbMasterSequencePackage(fast)
# Loading work.AhbVirtualSequencePackage(fast)
# Loading work.AhbTestPackage(fast)
# Loading work.AhbMasterMonitorBFM(fast)
# Loading work.AhbSlaveDriverBFM(fast)
# Loading work.HvlTop(fast)
# Loading work.HdlTop(fast)
# Loading work.AhbInterconnect_sv_unit(fast)
# Loading work.AhbInterconnect(fast)
# Loading work.AhbMasterAgentBFM(fast)
# Loading work.AhbMasterDriverBFM_sv_unit(fast)
# Loading work.AhbMasterDriverBFM(fast)
# Loading work.AhbMasterMonitorBFM_sv_unit(fast)
# Loading work.AhbMasterMonitorBFM(fast)
# Loading work.AhbMasterAgentBFM(fast__1)
# Loading work.AhbSlaveAgentBFM(fast)
# Loading work.AhbSlaveDriverBFM_sv_unit(fast)
# Loading work.AhbSlaveDriverBFM(fast)
# Loading work.AhbSlaveMonitorBFM_sv_unit(fast)
# Loading work.AhbSlaveMonitorBFM(fast)
# Loading work.AhbSlaveAgentBFM(fast__1)
# Loading mtiUvm.questa_uvm_pkg(fast)
# Loading work.AhbInterface_sv_unit(fast)
# Loading work.AhbInterface(fast__1)
# Loading work.AhbInterface(fast__2)
# ** Warning: (vsim-3015) ../../src/hdlTop/slaveAgentBFM/AhbSlaveAgentBFM.sv(40): [PCDPC] - Port size (2) does not match connection size (1) for port 'hselx'. The port definition is at: ../../src/hdlTop/slaveAgentBFM/AhbSlaveMonitorBFM.sv(25).
#    Time: 0 ns  Iteration: 0  Instance: /HdlTop/genblk2[0]/ahbSlaveAgentBFM/ahbSlaveMonitorBFM File: ../../src/hdlTop/slaveAgentBFM/AhbSlaveMonitorBFM.sv
# ** Warning: (vsim-3015) ../../src/hdlTop/slaveAgentBFM/AhbSlaveAgentBFM.sv(40): [PCDPC] - Port size (2) does not match connection size (1) for port 'hselx'. The port definition is at: ../../src/hdlTop/slaveAgentBFM/AhbSlaveMonitorBFM.sv(25).
#    Time: 0 ns  Iteration: 0  Instance: /HdlTop/genblk2[1]/ahbSlaveAgentBFM/ahbSlaveMonitorBFM File: ../../src/hdlTop/slaveAgentBFM/AhbSlaveMonitorBFM.sv
# Loading /tools/mentor/questasim_10.6c/questasim/uvm-1.1d/linux/uvm_dpi.so
# Sv_Seed = 3084119546
# log -r /*
#  add wave -r /*
#  coverage save -onexit -assert -directive -cvg -codeAll AhbLength16WriteFollowedByReadTest/AhbLength16WriteFollowedByReadTest_coverage.ucdb
#  run -all
# ----------------------------------------------------------------
# UVM-1.1d
# (C) 2007-2013 Mentor Graphics Corporation
# (C) 2007-2013 Cadence Design Systems, Inc.
# (C) 2006-2013 Synopsys, Inc.
# (C) 2011-2013 Cypress Semiconductor Corp.
# ----------------------------------------------------------------
# 
#   ***********       IMPORTANT RELEASE NOTES         ************
# 
#   You are using a version of the UVM library that has been compiled
#   with `UVM_NO_DEPRECATED undefined.
#   See http://www.eda.org/svdb/view.php?id=3313 for more details.
# 
#   You are using a version of the UVM library that has been compiled
#   with `UVM_OBJECT_MUST_HAVE_CONSTRUCTOR undefined.
#   See http://www.eda.org/svdb/view.php?id=3770 for more details.
# 
#       (Specify +UVM_NO_RELNOTES to turn off this notice)
# 
# UVM_INFO verilog_src/questa_uvm_pkg-1.2/src/questa_uvm_pkg.sv(215) @ 0: reporter [Questa UVM] QUESTA_UVM-1.2.3
# UVM_INFO verilog_src/questa_uvm_pkg-1.2/src/questa_uvm_pkg.sv(217) @ 0: reporter [Questa UVM]  questa_uvm::init(+struct)
# UVM_INFO @ 0: reporter [RNTST] Running test AhbLength16WriteFollowedByReadTest...
# UVM_INFO ../../src/hdlTop/HdlTop.sv(13) @ 0: reporter [HDL_TOP] HDL_TOP
# UVM_INFO ../../src/hdlTop/masterAgentBFM/AhbMasterAgentBFM.sv(15) @ 0: reporter [ahb master agent bfm] AHB MASTER AGENT BFM id is 0
# THE MASTER AGENT ARE  CREATED AS EXPECTED HdlTop.genblk1[0].ahbMasterAgentBFM.ahbMasterDriverBFM.MASTER_DRIVER
# UVM_INFO ../../src/hdlTop/masterAgentBFM/AhbMasterMonitorBFM.sv(43) @ 0: reporter [AHB_MASTER_MONITOR_BFM] AHB MASTER MONITOR BFM
# UVM_INFO ../../src/hdlTop/masterAgentBFM/AhbMasterAgentBFM.sv(15) @ 0: reporter [ahb master agent bfm] AHB MASTER AGENT BFM id is 1
# THE MASTER AGENT ARE  CREATED AS EXPECTED HdlTop.genblk1[1].ahbMasterAgentBFM.ahbMasterDriverBFM.MASTER_DRIVER
# UVM_INFO ../../src/hdlTop/masterAgentBFM/AhbMasterMonitorBFM.sv(43) @ 0: reporter [AHB_MASTER_MONITOR_BFM] AHB MASTER MONITOR BFM
# UVM_INFO ../../src/hdlTop/slaveAgentBFM/AhbSlaveAgentBFM.sv(14) @ 0: reporter [ahb slave agent bfm] AHB SLAVE AGENT BFM 0
# UVM_INFO ../../src/hdlTop/slaveAgentBFM/AhbSlaveDriverBFM.sv(40) @ 0: reporter [AHB_SLAVE_DRIVER_BFM] AHB_SLAVE_DRIVER_BFM
# UVM_INFO ../../src/hdlTop/slaveAgentBFM/AhbSlaveMonitorBFM.sv(44) @ 0: reporter [AHB_SLAVE_MONITOR_BFM] AHB_SLAVE_MONITOR_BFM
# UVM_INFO ../../src/hdlTop/slaveAgentBFM/AhbSlaveAgentBFM.sv(14) @ 0: reporter [ahb slave agent bfm] AHB SLAVE AGENT BFM 1
# UVM_INFO ../../src/hdlTop/slaveAgentBFM/AhbSlaveDriverBFM.sv(40) @ 0: reporter [AHB_SLAVE_DRIVER_BFM] AHB_SLAVE_DRIVER_BFM
# UVM_INFO ../../src/hdlTop/slaveAgentBFM/AhbSlaveMonitorBFM.sv(44) @ 0: reporter [AHB_SLAVE_MONITOR_BFM] AHB_SLAVE_MONITOR_BFM
#                    0else hready 0 master [1] can_accept=0 oldest_is_ready=1
#                    0else hready 0 master [0] can_accept=0 oldest_is_ready=1
#  1st hwdata = x
# [0] my_hwdata = x ahbSlaveInterface[1].haddr = x
#  2nd hwdata = x
#  1st hwdata = x
# [0] my_hwdata = x ahbSlaveInterface[0].haddr = x
#  2nd hwdata = x
# ENTERED THIS BLOCK @0
# ENTERED THIS BLOCK @0
# check can_accept=x slave_data_phase[s].valid = x  slave_hreadyout[s]=x
# check can_accept=x slave_data_phase[s].valid = x  slave_hreadyout[s]=x
# ** Info: THE REQ IS x for the slave 1
#    Time: 0 ns  Scope: HdlTop.ahbinterconnect.genblk5[1].genblk1[1] File: ../../src/hdlTop/interconnect/AhbInterconnect.sv Line: 191
# ** Info: THE GRANT IS x for the slave 1 addr is x for master 1
#    Time: 0 ns  Scope: HdlTop.ahbinterconnect.genblk5[1].genblk1[1] File: ../../src/hdlTop/interconnect/AhbInterconnect.sv Line: 192
# ** Info: THE REQ IS x for the slave 1
#    Time: 0 ns  Scope: HdlTop.ahbinterconnect.genblk5[1].genblk1[0] File: ../../src/hdlTop/interconnect/AhbInterconnect.sv Line: 191
# ** Info: THE GRANT IS x for the slave 1 addr is x for master 0
#    Time: 0 ns  Scope: HdlTop.ahbinterconnect.genblk5[1].genblk1[0] File: ../../src/hdlTop/interconnect/AhbInterconnect.sv Line: 192
# ** Info: THE REQ IS x for the slave 0
#    Time: 0 ns  Scope: HdlTop.ahbinterconnect.genblk5[0].genblk1[1] File: ../../src/hdlTop/interconnect/AhbInterconnect.sv Line: 191
# ** Info: THE GRANT IS x for the slave 0 addr is x for master 1
#    Time: 0 ns  Scope: HdlTop.ahbinterconnect.genblk5[0].genblk1[1] File: ../../src/hdlTop/interconnect/AhbInterconnect.sv Line: 192
# ** Info: THE REQ IS x for the slave 0
#    Time: 0 ns  Scope: HdlTop.ahbinterconnect.genblk5[0].genblk1[0] File: ../../src/hdlTop/interconnect/AhbInterconnect.sv Line: 191
# ** Info: THE GRANT IS x for the slave 0 addr is x for master 0
#    Time: 0 ns  Scope: HdlTop.ahbinterconnect.genblk5[0].genblk1[0] File: ../../src/hdlTop/interconnect/AhbInterconnect.sv Line: 192
# invalid  address x
# invalid  address x
# invalid  address x
# invalid  address x
# [0] my_slave = 0, my_read_owner = x
# [0] my_slave = 0, my_read_owner = x
# [0] my_slave = 1, my_read_owner = x
# [0] my_slave = 1, my_read_owner = x
#                    0else hready 0 master [0] can_accept=0 oldest_is_ready=1
#                    0else hready 0 master [1] can_accept=0 oldest_is_ready=1
# ENTERED THIS BLOCK @0
# ENTERED THIS BLOCK @0
# check can_accept=x slave_data_phase[s].valid = x  slave_hreadyout[s]=0
# check can_accept=x slave_data_phase[s].valid = x  slave_hreadyout[s]=0
# THE MASTER FIELD IS AhbMasterDriverBFM0 
# THE MASTER FIELD IS AhbMasterDriverBFM1 
# UVM_INFO ../../src/hvlTop/tb/test/AhbBaseTest.sv(57) @ 0: uvm_test_top [AhbLength16WriteFollowedByReadTest] 
# AHB_MASTER_CONFIG[0]
# ----------------------------------------------------------
# Name                     Type                  Size  Value
# ----------------------------------------------------------
# AhbMasterAgentConfig[0]  AhbMasterAgentConfig  -     @505 
#   is_active              integral              1     1    
#   hasCoverage            integral              1     1    
# ----------------------------------------------------------
# 
# UVM_INFO ../../src/hvlTop/tb/test/AhbBaseTest.sv(57) @ 0: uvm_test_top [AhbLength16WriteFollowedByReadTest] 
# AHB_MASTER_CONFIG[1]
# ----------------------------------------------------------
# Name                     Type                  Size  Value
# ----------------------------------------------------------
# AhbMasterAgentConfig[1]  AhbMasterAgentConfig  -     @506 
#   is_active              integral              1     1    
#   hasCoverage            integral              1     1    
# ----------------------------------------------------------
# 
# THE FIELD IS AhbSlaveDriverBFM0
# THE FIELD IS AhbSlaveDriverBFM1
# UVM_INFO ../../src/hvlTop/tb/test/AhbBaseTest.sv(70) @ 0: uvm_test_top [AhbLength16WriteFollowedByReadTest] 
# AHB_SLAVE_CONFIG[0]
# -------------------------------------------------------------
# Name                    Type                 Size  Value     
# -------------------------------------------------------------
# AhbSlaveAgentConfig[0]  AhbSlaveAgentConfig  -     @517      
#   is_active             string               10    UVM_ACTIVE
#   hasCoverage           integral             1     1         
#   maximumAddress        integral             32    'h0       
#   minimumAddress        integral             32    'h0       
# -------------------------------------------------------------
# 
# UVM_INFO ../../src/hvlTop/tb/test/AhbBaseTest.sv(70) @ 0: uvm_test_top [AhbLength16WriteFollowedByReadTest] 
# AHB_SLAVE_CONFIG[1]
# -------------------------------------------------------------
# Name                    Type                 Size  Value     
# -------------------------------------------------------------
# AhbSlaveAgentConfig[1]  AhbSlaveAgentConfig  -     @518      
#   is_active             string               10    UVM_ACTIVE
#   hasCoverage           integral             1     1         
#   maximumAddress        integral             32    'h0       
#   minimumAddress        integral             32    'h0       
# -------------------------------------------------------------
# 
# UVM_INFO ../../src/hvlTop/tb/test/AhbBaseTest.sv(74) @ 0: uvm_test_top [AhbLength16WriteFollowedByReadTest] 
# AHB_ENV_CONFIG
# -------------------------------------------------------------
# Name                   Type                  Size  Value     
# -------------------------------------------------------------
# ahbEnvironmentConfig   AhbEnvironmentConfig  -     @504      
#   hasScoreboard        integral              1     1         
#   hasVirtualSequencer  integral              1     1         
#   noOfMasters          integral              32    'd2       
#   noOfSlaves           integral              32    'd2       
#   operationMode        integral              2     2         
#   operationMode        string                10    WRITE_READ
# -------------------------------------------------------------
# 
# ASSIGNMENT IN ENV IS 0
# ASSIGNMENT IN ENV IS 0
# THE CONFIG IS 65903
# THE CONFIG IS 131439
# THE NUMBER OF WAIT IS 0
# IN THE SLAVE PROXY THE  0
# THE NUMBER OF WAIT IS 0
# IN THE SLAVE PROXY THE  0
# UVM_INFO @ 0: reporter [UVMTOP] UVM testbench topology:
# -------------------------------------------------------------------------------
# Name                            Type                                Size  Value
# -------------------------------------------------------------------------------
# uvm_test_top                    AhbLength16WriteFollowedByReadTest  -     @473 
#   swasthik                      AhbEnvironment                      -     @533 
#     ahbMasterAgent[0]           AhbMasterAgent                      -     @543 
#       ahbMasterCoverage         AhbMasterCoverage                   -     @1025
#         analysis_imp            uvm_analysis_imp                    -     @1032
#       ahbMasterDriverProxy      AhbMasterDriverProxy                -     @987 
#         rsp_port                uvm_analysis_port                   -     @1002
#         seq_item_port           uvm_seq_item_pull_port              -     @994 
#       ahbMasterMonitorProxy     AhbMasterMonitorProxy               -     @1010
#         ahbMasterAnalysisPort   uvm_analysis_port                   -     @1017
#       ahbMasterSequencer        AhbMasterSequencer                  -     @878 
#         rsp_export              uvm_analysis_export                 -     @885 
#         seq_item_export         uvm_seq_item_pull_imp               -     @979 
#         arbitration_queue       array                               0     -    
#         lock_queue              array                               0     -    
#         num_last_reqs           integral                            32    'd1  
#         num_last_rsps           integral                            32    'd1  
#     ahbMasterAgent[1]           AhbMasterAgent                      -     @550 
#       ahbMasterCoverage         AhbMasterCoverage                   -     @1193
#         analysis_imp            uvm_analysis_imp                    -     @1200
#       ahbMasterDriverProxy      AhbMasterDriverProxy                -     @1155
#         rsp_port                uvm_analysis_port                   -     @1170
#         seq_item_port           uvm_seq_item_pull_port              -     @1162
#       ahbMasterMonitorProxy     AhbMasterMonitorProxy               -     @1178
#         ahbMasterAnalysisPort   uvm_analysis_port                   -     @1185
#       ahbMasterSequencer        AhbMasterSequencer                  -     @1046
#         rsp_export              uvm_analysis_export                 -     @1053
#         seq_item_export         uvm_seq_item_pull_imp               -     @1147
#         arbitration_queue       array                               0     -    
#         lock_queue              array                               0     -    
#         num_last_reqs           integral                            32    'd1  
#         num_last_rsps           integral                            32    'd1  
#     ahbScoreboard               AhbScoreboard                       -     @682 
#       ahbMasterAnalysisFifo[0]  uvm_tlm_analysis_fifo #(T)          -     @689 
#         analysis_export         uvm_analysis_imp                    -     @728 
#         get_ap                  uvm_analysis_port                   -     @720 
#         get_peek_export         uvm_get_peek_imp                    -     @704 
#         put_ap                  uvm_analysis_port                   -     @712 
#         put_export              uvm_put_imp                         -     @696 
#       ahbMasterAnalysisFifo[1]  uvm_tlm_analysis_fifo #(T)          -     @736 
#         analysis_export         uvm_analysis_imp                    -     @775 
#         get_ap                  uvm_analysis_port                   -     @767 
#         get_peek_export         uvm_get_peek_imp                    -     @751 
#         put_ap                  uvm_analysis_port                   -     @759 
#         put_export              uvm_put_imp                         -     @743 
#       ahbSlaveAnalysisFifo[0]   uvm_tlm_analysis_fifo #(T)          -     @783 
#         analysis_export         uvm_analysis_imp                    -     @822 
#         get_ap                  uvm_analysis_port                   -     @814 
#         get_peek_export         uvm_get_peek_imp                    -     @798 
#         put_ap                  uvm_analysis_port                   -     @806 
#         put_export              uvm_put_imp                         -     @790 
#       ahbSlaveAnalysisFifo[1]   uvm_tlm_analysis_fifo #(T)          -     @830 
#         analysis_export         uvm_analysis_imp                    -     @869 
#         get_ap                  uvm_analysis_port                   -     @861 
#         get_peek_export         uvm_get_peek_imp                    -     @845 
#         put_ap                  uvm_analysis_port                   -     @853 
#         put_export              uvm_put_imp                         -     @837 
#     ahbSlaveAgent[0]            AhbSlaveAgent                       -     @559 
#       ahbSlaveCoverage          AhbSlaveCoverage                    -     @1362
#         analysis_imp            uvm_analysis_imp                    -     @1369
#       ahbSlaveDriverProxy       AhbSlaveDriverProxy                 -     @1324
#         rsp_port                uvm_analysis_port                   -     @1339
#         seq_item_port           uvm_seq_item_pull_port              -     @1331
#       ahbSlaveMonitorProxy      AhbSlaveMonitorProxy                -     @1347
#         ahbSlaveAnalysisPort    uvm_analysis_port                   -     @1354
#       ahbSlaveSequencer         AhbSlaveSequencer                   -     @1215
#         rsp_export              uvm_analysis_export                 -     @1222
#         seq_item_export         uvm_seq_item_pull_imp               -     @1316
#         arbitration_queue       array                               0     -    
#         lock_queue              array                               0     -    
#         num_last_reqs           integral                            32    'd1  
#         num_last_rsps           integral                            32    'd1  
#     ahbSlaveAgent[1]            AhbSlaveAgent                       -     @566 
#       ahbSlaveCoverage          AhbSlaveCoverage                    -     @1530
#         analysis_imp            uvm_analysis_imp                    -     @1537
#       ahbSlaveDriverProxy       AhbSlaveDriverProxy                 -     @1492
#         rsp_port                uvm_analysis_port                   -     @1507
#         seq_item_port           uvm_seq_item_pull_port              -     @1499
#       ahbSlaveMonitorProxy      AhbSlaveMonitorProxy                -     @1515
#         ahbSlaveAnalysisPort    uvm_analysis_port                   -     @1522
#       ahbSlaveSequencer         AhbSlaveSequencer                   -     @1383
#         rsp_export              uvm_analysis_export                 -     @1390
#         seq_item_export         uvm_seq_item_pull_imp               -     @1484
#         arbitration_queue       array                               0     -    
#         lock_queue              array                               0     -    
#         num_last_reqs           integral                            32    'd1  
#         num_last_rsps           integral                            32    'd1  
#     ahbVirtualSequencer         AhbVirtualSequencer                 -     @573 
#       rsp_export                uvm_analysis_export                 -     @580 
#       seq_item_export           uvm_seq_item_pull_imp               -     @674 
#       arbitration_queue         array                               0     -    
#       lock_queue                array                               0     -    
#       num_last_reqs             integral                            32    'd1  
#       num_last_rsps             integral                            32    'd1  
# -------------------------------------------------------------------------------
# 
# UVM_INFO verilog_src/questa_uvm_pkg-1.2/src/questa_uvm_pkg.sv(277) @ 0: reporter [Questa UVM] End Of Elaboration
# UVM_INFO ../../src/hvlTop/tb/test/AhbLength16WriteFollowedByReadTest.sv(28) @ 0: uvm_test_top [AhbLength16WriteFollowedByReadTest] AhbLength16WriteFollowedByReadTest
# CONNVERTER NO OF WAIT STATES IS 0
# UVM_INFO ../../src/hvlTop/slaveAgent/AhbSlaveDriverProxy.sv(49) @ 0: uvm_test_top.swasthik.ahbSlaveAgent[1].ahbSlaveDriverProxy [AhbSlaveDriverProxy]  BEFORERESET 
#  
# CONNVERTER NO OF WAIT STATES IS 0
# UVM_INFO ../../src/hvlTop/slaveAgent/AhbSlaveDriverProxy.sv(49) @ 0: uvm_test_top.swasthik.ahbSlaveAgent[0].ahbSlaveDriverProxy [AhbSlaveDriverProxy]  BEFORERESET 
#  
# UVM_INFO ../../src/hvlTop/masterAgent/AhbMasterMonitorProxy.sv(56) @ 0: uvm_test_top.swasthik.ahbMasterAgent[1].ahbMasterMonitorProxy [AhbMasterMonitorProxy] Inside the master_monitor_proxy
# RESET CALLED
# UVM_INFO ../../src/hvlTop/masterAgent/AhbMasterMonitorProxy.sv(56) @ 0: uvm_test_top.swasthik.ahbMasterAgent[0].ahbMasterMonitorProxy [AhbMasterMonitorProxy] Inside the master_monitor_proxy
# RESET CALLED
# [5] my_slave = 0, my_read_owner = x
# [5] my_slave = 0, my_read_owner = x
# [5] my_slave = 1, my_read_owner = x
# [5] my_slave = 1, my_read_owner = x
# UVM_INFO ../../src/hdlTop/slaveAgentBFM/AhbSlaveDriverBFM.sv(52) @ 5: reporter [AHB_SLAVE_DRIVER_BFM] SYSTEM RESET DETECTED
# UVM_INFO ../../src/hdlTop/slaveAgentBFM/AhbSlaveDriverBFM.sv(52) @ 5: reporter [AHB_SLAVE_DRIVER_BFM] SYSTEM RESET DETECTED
# UVM_INFO ../../src/hdlTop/masterAgentBFM/AhbMasterDriverBFM.sv(48) @ 5: reporter [AHB_MASTER_DRIVER_BFM] SYSTEM RESET DETECTED
# UVM_INFO ../../src/hdlTop/masterAgentBFM/AhbMasterMonitorBFM.sv(48) @ 5: reporter [AHB_MASTER_MONITOR_BFM] system reset detected
# UVM_INFO ../../src/hdlTop/masterAgentBFM/AhbMasterDriverBFM.sv(48) @ 5: reporter [AHB_MASTER_DRIVER_BFM] SYSTEM RESET DETECTED
# UVM_INFO ../../src/hdlTop/masterAgentBFM/AhbMasterMonitorBFM.sv(48) @ 5: reporter [AHB_MASTER_MONITOR_BFM] system reset detected
#                    5else hready 0 master [0] can_accept=0 oldest_is_ready=1
#                    5else hready 0 master [1] can_accept=0 oldest_is_ready=1
# check can_accept=1 slave_data_phase[s].valid = x  slave_hreadyout[s]=1
#                    5 3rd block can accept=1 slave=1
# slave_has_owner = x slave = 1 
# check can_accept=1 slave_data_phase[s].valid = x  slave_hreadyout[s]=1
#                    5 3rd block can accept=1 slave=0
# slave_has_owner = x slave = 0 
#                    5else hready 0 master [0] can_accept=0 oldest_is_ready=1
#                    5else hready 0 master [1] can_accept=0 oldest_is_ready=1
# check can_accept=1 slave_data_phase[s].valid = x  slave_hreadyout[s]=1
#                    5 3rd block can accept=1 slave=1
# slave_has_owner = 0 slave = 1 
# check can_accept=1 slave_data_phase[s].valid = x  slave_hreadyout[s]=1
#                    5 3rd block can accept=1 slave=0
# slave_has_owner = 0 slave = 0 
# @                  15 H EY MAN
# ENTERED THIS BLOCK @15
# ENTERED THIS BLOCK @15
# UVM_INFO ../../src/hdlTop/masterAgentBFM/AhbMasterMonitorBFM.sv(50) @ 15: reporter [AHB_MASTER_MONITOR_BFM] system reset deactivated
# UVM_INFO ../../src/hdlTop/masterAgentBFM/AhbMasterMonitorBFM.sv(50) @ 15: reporter [AHB_MASTER_MONITOR_BFM] system reset deactivated
# ishika 15 haddr = 0
# [15] from master monitor = haddr=x, hwdata = x, hrdata = x, hwstrb=x 
# ** Warning: (vsim-8233) ../../src/hvlTop/masterAgent/AhbMasterSequenceItemConverter.sv(167): Index 16 into empty array is out of bounds.
#    Time: 15 ns  Iteration: 3  Region: /uvm_pkg::uvm_task_phase::execute
# ** Warning: (vsim-8233) ../../src/hvlTop/masterAgent/AhbMasterSequenceItemConverter.sv(167): Index 15 into empty array is out of bounds.
#    Time: 15 ns  Iteration: 3  Region: /uvm_pkg::uvm_task_phase::execute
# ** Warning: (vsim-8233) ../../src/hvlTop/masterAgent/AhbMasterSequenceItemConverter.sv(167): Index 14 into empty array is out of bounds.
#    Time: 15 ns  Iteration: 3  Region: /uvm_pkg::uvm_task_phase::execute
# ** Warning: (vsim-8233) ../../src/hvlTop/masterAgent/AhbMasterSequenceItemConverter.sv(167): Index 13 into empty array is out of bounds.
#    Time: 15 ns  Iteration: 3  Region: /uvm_pkg::uvm_task_phase::execute
# ** Warning: (vsim-8233) ../../src/hvlTop/masterAgent/AhbMasterSequenceItemConverter.sv(167): Index 12 into empty array is out of bounds.
#    Time: 15 ns  Iteration: 3  Region: /uvm_pkg::uvm_task_phase::execute
# ** Warning: (vsim-8233) ../../src/hvlTop/masterAgent/AhbMasterSequenceItemConverter.sv(167): Index 11 into empty array is out of bounds.
#    Time: 15 ns  Iteration: 3  Region: /uvm_pkg::uvm_task_phase::execute
# ** Warning: (vsim-8233) ../../src/hvlTop/masterAgent/AhbMasterSequenceItemConverter.sv(167): Index 10 into empty array is out of bounds.
#    Time: 15 ns  Iteration: 3  Region: /uvm_pkg::uvm_task_phase::execute
# ** Warning: (vsim-8233) ../../src/hvlTop/masterAgent/AhbMasterSequenceItemConverter.sv(167): Index 9 into empty array is out of bounds.
#    Time: 15 ns  Iteration: 3  Region: /uvm_pkg::uvm_task_phase::execute
# ** Warning: (vsim-8233) ../../src/hvlTop/masterAgent/AhbMasterSequenceItemConverter.sv(167): Index 8 into empty array is out of bounds.
#    Time: 15 ns  Iteration: 3  Region: /uvm_pkg::uvm_task_phase::execute
# ** Warning: (vsim-8233) ../../src/hvlTop/masterAgent/AhbMasterSequenceItemConverter.sv(167): Index 7 into empty array is out of bounds.
#    Time: 15 ns  Iteration: 3  Region: /uvm_pkg::uvm_task_phase::execute
# ** Warning: (vsim-8233) ../../src/hvlTop/masterAgent/AhbMasterSequenceItemConverter.sv(167): Index 6 into empty array is out of bounds.
#    Time: 15 ns  Iteration: 3  Region: /uvm_pkg::uvm_task_phase::execute
# ** Warning: (vsim-8233) ../../src/hvlTop/masterAgent/AhbMasterSequenceItemConverter.sv(167): Index 5 into empty array is out of bounds.
#    Time: 15 ns  Iteration: 3  Region: /uvm_pkg::uvm_task_phase::execute
# ** Warning: (vsim-8233) ../../src/hvlTop/masterAgent/AhbMasterSequenceItemConverter.sv(167): Index 4 into empty array is out of bounds.
#    Time: 15 ns  Iteration: 3  Region: /uvm_pkg::uvm_task_phase::execute
# ** Warning: (vsim-8233) ../../src/hvlTop/masterAgent/AhbMasterSequenceItemConverter.sv(167): Index 3 into empty array is out of bounds.
#    Time: 15 ns  Iteration: 3  Region: /uvm_pkg::uvm_task_phase::execute
# ** Warning: (vsim-8233) ../../src/hvlTop/masterAgent/AhbMasterSequenceItemConverter.sv(167): Index 2 into empty array is out of bounds.
#    Time: 15 ns  Iteration: 3  Region: /uvm_pkg::uvm_task_phase::execute
# ** Warning: (vsim-8233) ../../src/hvlTop/masterAgent/AhbMasterSequenceItemConverter.sv(167): Index 1 into empty array is out of bounds.
#    Time: 15 ns  Iteration: 3  Region: /uvm_pkg::uvm_task_phase::execute
# UVM_INFO ../../src/hvlTop/masterAgent/AhbMasterMonitorProxy.sv(72) @ 15: uvm_test_top.swasthik.ahbMasterAgent[1].ahbMasterMonitorProxy [AhbMasterMonitorProxy] Sending packet via analysis_port: , 
#  ------------------------------------------------------------------------
# Name                      Type                  Size  Value             
# ------------------------------------------------------------------------
# ahbMasterPacket           AhbMasterTransaction  -     @1759             
#   haddr                   integral              32    'h0               
#   hselx                   integral              2     'b0               
#   hburst                  string                6     SINGLE            
#   hmastlock               integral              1     'h0               
#   hprot                   string                18    NORMAL_SECURE_DATA
#   hsize                   string                4     BYTE              
#   hnonsec                 integral              1     'h0               
#   hexcl                   integral              1     'h0               
#   hmaster                 integral              1     'd0               
#   htrans                  string                4     IDLE              
#   hwrite                  string                4     READ              
#   hreadyout               integral              1     'h0               
#   hresp                   string                4     OKAY              
#   hexokay                 integral              1     'h0               
#   hready                  integral              1     'h0               
#   noOfwaitStatesDetected  integral              32    'h0               
#   hrdata[0]               integral              32    'h0               
# ------------------------------------------------------------------------
# 
# UVM_INFO ../../src/hvlTop/masterAgent/AhbMasterCoverage.sv(107) @ 15: uvm_test_top.swasthik.ahbMasterAgent[1].ahbMasterCoverage [AhbMasterCoverage] Before calling SAMPLE METHOD
# UVM_INFO ../../src/hvlTop/masterAgent/AhbMasterCoverage.sv(109) @ 15: uvm_test_top.swasthik.ahbMasterAgent[1].ahbMasterCoverage [AhbMasterCoverage] After calling SAMPLE METHOD
# UVM_INFO ../../src/hdlTop/masterAgentBFM/AhbMasterDriverBFM.sv(52) @ 15: reporter [AHB_MASTER_DRIVER_BFM]  @15 SYSTEM RESET DEACTIVATED
# 
#  
#  getting next one 
#  
# 
# ....I AM HERE..... 15 
# ishika 15 haddr = 0
# [15] from master monitor = haddr=x, hwdata = x, hrdata = x, hwstrb=x 
# ** Warning: (vsim-8233) ../../src/hvlTop/masterAgent/AhbMasterSequenceItemConverter.sv(167): Index 16 into empty array is out of bounds.
#    Time: 15 ns  Iteration: 3  Region: /uvm_pkg::uvm_task_phase::execute
# ** Warning: (vsim-8233) ../../src/hvlTop/masterAgent/AhbMasterSequenceItemConverter.sv(167): Index 15 into empty array is out of bounds.
#    Time: 15 ns  Iteration: 3  Region: /uvm_pkg::uvm_task_phase::execute
# ** Warning: (vsim-8233) ../../src/hvlTop/masterAgent/AhbMasterSequenceItemConverter.sv(167): Index 14 into empty array is out of bounds.
#    Time: 15 ns  Iteration: 3  Region: /uvm_pkg::uvm_task_phase::execute
# ** Warning: (vsim-8233) ../../src/hvlTop/masterAgent/AhbMasterSequenceItemConverter.sv(167): Index 13 into empty array is out of bounds.
#    Time: 15 ns  Iteration: 3  Region: /uvm_pkg::uvm_task_phase::execute
# ** Warning: (vsim-8233) ../../src/hvlTop/masterAgent/AhbMasterSequenceItemConverter.sv(167): Index 12 into empty array is out of bounds.
#    Time: 15 ns  Iteration: 3  Region: /uvm_pkg::uvm_task_phase::execute
# ** Warning: (vsim-8233) ../../src/hvlTop/masterAgent/AhbMasterSequenceItemConverter.sv(167): Index 11 into empty array is out of bounds.
#    Time: 15 ns  Iteration: 3  Region: /uvm_pkg::uvm_task_phase::execute
# ** Warning: (vsim-8233) ../../src/hvlTop/masterAgent/AhbMasterSequenceItemConverter.sv(167): Index 10 into empty array is out of bounds.
#    Time: 15 ns  Iteration: 3  Region: /uvm_pkg::uvm_task_phase::execute
# ** Warning: (vsim-8233) ../../src/hvlTop/masterAgent/AhbMasterSequenceItemConverter.sv(167): Index 9 into empty array is out of bounds.
#    Time: 15 ns  Iteration: 3  Region: /uvm_pkg::uvm_task_phase::execute
# ** Warning: (vsim-8233) ../../src/hvlTop/masterAgent/AhbMasterSequenceItemConverter.sv(167): Index 8 into empty array is out of bounds.
#    Time: 15 ns  Iteration: 3  Region: /uvm_pkg::uvm_task_phase::execute
# ** Warning: (vsim-8233) ../../src/hvlTop/masterAgent/AhbMasterSequenceItemConverter.sv(167): Index 7 into empty array is out of bounds.
#    Time: 15 ns  Iteration: 3  Region: /uvm_pkg::uvm_task_phase::execute
# ** Warning: (vsim-8233) ../../src/hvlTop/masterAgent/AhbMasterSequenceItemConverter.sv(167): Index 6 into empty array is out of bounds.
#    Time: 15 ns  Iteration: 3  Region: /uvm_pkg::uvm_task_phase::execute
# ** Warning: (vsim-8233) ../../src/hvlTop/masterAgent/AhbMasterSequenceItemConverter.sv(167): Index 5 into empty array is out of bounds.
#    Time: 15 ns  Iteration: 3  Region: /uvm_pkg::uvm_task_phase::execute
# ** Warning: (vsim-8233) ../../src/hvlTop/masterAgent/AhbMasterSequenceItemConverter.sv(167): Index 4 into empty array is out of bounds.
#    Time: 15 ns  Iteration: 3  Region: /uvm_pkg::uvm_task_phase::execute
# ** Warning: (vsim-8233) ../../src/hvlTop/masterAgent/AhbMasterSequenceItemConverter.sv(167): Index 3 into empty array is out of bounds.
#    Time: 15 ns  Iteration: 3  Region: /uvm_pkg::uvm_task_phase::execute
# ** Warning: (vsim-8233) ../../src/hvlTop/masterAgent/AhbMasterSequenceItemConverter.sv(167): Index 2 into empty array is out of bounds.
#    Time: 15 ns  Iteration: 3  Region: /uvm_pkg::uvm_task_phase::execute
# ** Warning: (vsim-8233) ../../src/hvlTop/masterAgent/AhbMasterSequenceItemConverter.sv(167): Index 1 into empty array is out of bounds.
#    Time: 15 ns  Iteration: 3  Region: /uvm_pkg::uvm_task_phase::execute
# UVM_INFO ../../src/hvlTop/masterAgent/AhbMasterMonitorProxy.sv(72) @ 15: uvm_test_top.swasthik.ahbMasterAgent[0].ahbMasterMonitorProxy [AhbMasterMonitorProxy] Sending packet via analysis_port: , 
#  ------------------------------------------------------------------------
# Name                      Type                  Size  Value             
# ------------------------------------------------------------------------
# ahbMasterPacket           AhbMasterTransaction  -     @1763             
#   haddr                   integral              32    'h0               
#   hselx                   integral              2     'b0               
#   hburst                  string                6     SINGLE            
#   hmastlock               integral              1     'h0               
#   hprot                   string                18    NORMAL_SECURE_DATA
#   hsize                   string                4     BYTE              
#   hnonsec                 integral              1     'h0               
#   hexcl                   integral              1     'h0               
#   hmaster                 integral              1     'd0               
#   htrans                  string                4     IDLE              
#   hwrite                  string                4     READ              
#   hreadyout               integral              1     'h0               
#   hresp                   string                4     OKAY              
#   hexokay                 integral              1     'h0               
#   hready                  integral              1     'h0               
#   noOfwaitStatesDetected  integral              32    'h0               
#   hrdata[0]               integral              32    'h0               
# ------------------------------------------------------------------------
# 
# UVM_INFO ../../src/hvlTop/masterAgent/AhbMasterCoverage.sv(107) @ 15: uvm_test_top.swasthik.ahbMasterAgent[0].ahbMasterCoverage [AhbMasterCoverage] Before calling SAMPLE METHOD
# UVM_INFO ../../src/hvlTop/masterAgent/AhbMasterCoverage.sv(109) @ 15: uvm_test_top.swasthik.ahbMasterAgent[0].ahbMasterCoverage [AhbMasterCoverage] After calling SAMPLE METHOD
# UVM_INFO ../../src/hdlTop/masterAgentBFM/AhbMasterDriverBFM.sv(52) @ 15: reporter [AHB_MASTER_DRIVER_BFM]  @15 SYSTEM RESET DEACTIVATED
# 
#  
#  getting next one 
#  
# 
# ....I AM HERE..... 15 
# UVM_INFO ../../src/hdlTop/slaveAgentBFM/AhbSlaveDriverBFM.sv(56) @ 15: reporter [AHB_SLAVE_DRIVER_BFM] SYSTEM RESET DEACTIVATED
# UVM_INFO ../../src/hdlTop/slaveAgentBFM/AhbSlaveDriverBFM.sv(56) @ 15: reporter [AHB_SLAVE_DRIVER_BFM] SYSTEM RESET DEACTIVATED
# [15] run phase got m_tx haddr=0, mtx=2, htrans= 0 
# ------------------------------------------------------------------------
# Name                      Type                  Size  Value             
# ------------------------------------------------------------------------
# ahbMasterPacket           AhbMasterTransaction  -     @1759             
#   haddr                   integral              32    'h0               
#   hselx                   integral              2     'b0               
#   hburst                  string                6     SINGLE            
#   hmastlock               integral              1     'h0               
#   hprot                   string                18    NORMAL_SECURE_DATA
#   hsize                   string                4     BYTE              
#   hnonsec                 integral              1     'h0               
#   hexcl                   integral              1     'h0               
#   hmaster                 integral              1     'd0               
#   htrans                  string                4     IDLE              
#   hwrite                  string                4     READ              
#   hreadyout               integral              1     'h0               
#   hresp                   string                4     OKAY              
#   hexokay                 integral              1     'h0               
#   hready                  integral              1     'h0               
#   noOfwaitStatesDetected  integral              32    'h0               
#   hrdata[0]               integral              32    'h0               
# ------------------------------------------------------------------------
# [15] run phase got m_tx haddr=0, mtx=2, htrans= 0 
# ------------------------------------------------------------------------
# Name                      Type                  Size  Value             
# ------------------------------------------------------------------------
# ahbMasterPacket           AhbMasterTransaction  -     @1763             
#   haddr                   integral              32    'h0               
#   hselx                   integral              2     'b0               
#   hburst                  string                6     SINGLE            
#   hmastlock               integral              1     'h0               
#   hprot                   string                18    NORMAL_SECURE_DATA
#   hsize                   string                4     BYTE              
#   hnonsec                 integral              1     'h0               
#   hexcl                   integral              1     'h0               
#   hmaster                 integral              1     'd0               
#   htrans                  string                4     IDLE              
#   hwrite                  string                4     READ              
#   hreadyout               integral              1     'h0               
#   hresp                   string                4     OKAY              
#   hexokay                 integral              1     'h0               
#   hready                  integral              1     'h0               
#   noOfwaitStatesDetected  integral              32    'h0               
#   hrdata[0]               integral              32    'h0               
# ------------------------------------------------------------------------
# ---------------------------------------------------------
# Name                Type                 Size  Value     
# ---------------------------------------------------------
# req                 AhbSlaveTransaction  -     @1627     
#   haddr             integral             32    'h0       
#   hselx             integral             2     'b0       
#   hburst            string               0     ""        
#   hmastlock         integral             1     'h0       
#   hprot             string               0     ""        
#   hsize             string               0     ""        
#   hnonsec           integral             1     'h0       
#   hexcl             integral             1     'h0       
#   hmaster           integral             1     'd0       
#   htrans            string               0     ""        
#   hwrite            string               4     READ      
#   hreadyout         integral             1     'h0       
#   hresp             string               0     ""        
#   hexokay           integral             1     'h0       
#   hready            integral             1     'h0       
#   choosePacketData  integral             1     'd0       
#   hwdata[0]         integral             32    'h4a21f2ed
#   hwdata[1]         integral             32    'hff3f7991
#   hwdata[2]         integral             32    'hdf91ea06
#   hwdata[3]         integral             32    'hc5c7d28a
#   hwdata[4]         integral             32    'h9af4e9c3
#   hwdata[5]         integral             32    'hb37f17a5
#   hwdata[6]         integral             32    'h37e296fb
#   hwdata[7]         integral             32    'h4ac8e658
#   hwdata[8]         integral             32    'hd3e97144
#   hwdata[9]         integral             32    'h77e6dff1
#   hwdata[10]        integral             32    'h5888a11c
#   hwdata[11]        integral             32    'hb2ff2322
#   hwdata[12]        integral             32    'h83931012
#   hwdata[13]        integral             32    'h589306c3
#   hwdata[14]        integral             32    'h8ba695af
#   hwdata[15]        integral             32    'hdd534431
#   hwstrb[0]         integral             4     'b1010    
#   hwstrb[1]         integral             4     'b100     
#   hwstrb[2]         integral             4     'b10      
#   hwstrb[3]         integral             4     'b1110    
#   hwstrb[4]         integral             4     'b11      
#   hwstrb[5]         integral             4     'b100     
#   hwstrb[6]         integral             4     'b11      
#   hwstrb[7]         integral             4     'b1       
#   hwstrb[8]         integral             4     'b1011    
#   hwstrb[9]         integral             4     'b110     
#   hwstrb[10]        integral             4     'b1100    
#   hwstrb[11]        integral             4     'b1111    
#   hwstrb[12]        integral             4     'b0       
#   hwstrb[13]        integral             4     'b1101    
#   hwstrb[14]        integral             4     'b10      
#   hwstrb[15]        integral             4     'b1110    
#   hrdata[0]         integral             32    'h68f9e46e
#   hrdata[1]         integral             32    'h58ca8a3 
#   hrdata[2]         integral             32    'hdf492f38
#   hrdata[3]         integral             32    'h60495db4
#   hrdata[4]         integral             32    'he66df81c
#   hrdata[5]         integral             32    'hc73d76db
#   hrdata[6]         integral             32    'h2a56bc30
#   hrdata[7]         integral             32    'hcb6795cb
#   hrdata[8]         integral             32    'h6d587791
#   hrdata[9]         integral             32    'hd54f90c1
#   hrdata[10]        integral             32    'h7d9d7afa
#   hrdata[11]        integral             32    'h18366db 
#   hrdata[12]        integral             32    'h15c90ea4
#   hrdata[13]        integral             32    'ha0b7b5d0
#   hrdata[14]        integral             32    'h189a9646
#   hrdata[15]        integral             32    'h43512dc9
# ---------------------------------------------------------
# ---------------------------------------------------------
# Name                Type                 Size  Value     
# ---------------------------------------------------------
# req                 AhbSlaveTransaction  -     @1623     
#   haddr             integral             32    'h0       
#   hselx             integral             2     'b0       
#   hburst            string               0     ""        
#   hmastlock         integral             1     'h0       
#   hprot             string               0     ""        
#   hsize             string               0     ""        
#   hnonsec           integral             1     'h0       
#   hexcl             integral             1     'h0       
#   hmaster           integral             1     'd0       
#   htrans            string               0     ""        
#   hwrite            string               4     READ      
#   hreadyout         integral             1     'h0       
#   hresp             string               0     ""        
#   hexokay           integral             1     'h0       
#   hready            integral             1     'h0       
#   choosePacketData  integral             1     'd0       
#   hwdata[0]         integral             32    'heb08971 
#   hwdata[1]         integral             32    'h37115734
#   hwdata[2]         integral             32    'h5b7e76b6
#   hwdata[3]         integral             32    'h1721d735
#   hwdata[4]         integral             32    'h985a3b8b
#   hwdata[5]         integral             32    'h3b6baab4
#   hwdata[6]         integral             32    'hd906c908
#   hwdata[7]         integral             32    'he942d2f3
#   hwdata[8]         integral             32    'haa185721
#   hwdata[9]         integral             32    'h7e9e62e8
#   hwdata[10]        integral             32    'hebd48fd5
#   hwdata[11]        integral             32    'hdb771d89
#   hwdata[12]        integral             32    'hf70014bd
#   hwdata[13]        integral             32    'h7bded746
#   hwdata[14]        integral             32    'h2e16bc89
#   hwdata[15]        integral             32    'h4c2d092d
#   hwstrb[0]         integral             4     'b1011    
#   hwstrb[1]         integral             4     'b10      
#   hwstrb[2]         integral             4     'b1101    
#   hwstrb[3]         integral             4     'b1000    
#   hwstrb[4]         integral             4     'b1111    
#   hwstrb[5]         integral             4     'b10      
#   hwstrb[6]         integral             4     'b1001    
#   hwstrb[7]         integral             4     'b1111    
#   hwstrb[8]         integral             4     'b1110    
#   hwstrb[9]         integral             4     'b1       
#   hwstrb[10]        integral             4     'b0       
#   hwstrb[11]        integral             4     'b111     
#   hwstrb[12]        integral             4     'b110     
#   hwstrb[13]        integral             4     'b1011    
#   hwstrb[14]        integral             4     'b1000    
#   hwstrb[15]        integral             4     'b1011    
#   hrdata[0]         integral             32    'hd61ebb42
#   hrdata[1]         integral             32    'hed21a644
#   hrdata[2]         integral             32    'h6e1bb13 
#   hrdata[3]         integral             32    'h968cb890
#   hrdata[4]         integral             32    'h31cc837 
#   hrdata[5]         integral             32    'h48133931
#   hrdata[6]         integral             32    'h8489b080
#   hrdata[7]         integral             32    'hd40fb582
#   hrdata[8]         integral             32    'hb650c161
#   hrdata[9]         integral             32    'h84693f19
#   hrdata[10]        integral             32    'h67c8ed00
#   hrdata[11]        integral             32    'hede9f440
#   hrdata[12]        integral             32    'hf6a221a8
#   hrdata[13]        integral             32    'hb608ec60
#   hrdata[14]        integral             32    'h6cea6297
#   hrdata[15]        integral             32    'h12a161d7
# ---------------------------------------------------------
# UVM_INFO ../../src/hvlTop/masterAgent/masterSequences/AhbMasterSequence.sv(129) @ 15: uvm_test_top.swasthik.ahbMasterAgent[0].ahbMasterSequencer@@ahbMasterWriteSequence[0] [AHB] req is of type: AhbMasterTransaction
# *****************************************master sequence***********************************
# -------------------------------------------------------------------------------
# Name                      Type                  Size  Value                    
# -------------------------------------------------------------------------------
# req                       AhbMasterTransaction  -     @1635                    
#   haddr                   integral              32    'hb8                     
#   hselx                   integral              2     'b1                      
#   hburst                  string                6     INCR16                   
#   hmastlock               integral              1     'h0                      
#   hprot                   string                25    NORMAL_SECURE_INSTRUCTION
#   hsize                   string                4     WORD                     
#   hnonsec                 integral              1     'h1                      
#   hexcl                   integral              1     'h1                      
#   hmaster                 integral              1     'd0                      
#   htrans                  string                3     SEQ                      
#   hwrite                  string                5     WRITE                    
#   hreadyout               integral              1     'h0                      
#   hresp                   string                0     ""                       
#   hexokay                 integral              1     'h0                      
#   hready                  integral              1     'h0                      
#   noOfwaitStatesDetected  integral              32    'h0                      
#   hwdata[0]               integral              32    'h5775b567               
#   hwdata[1]               integral              32    'hb29ad55d               
#   hwdata[2]               integral              32    'hfdde44a4               
#   hwdata[3]               integral              32    'h4abf8d28               
#   hwdata[4]               integral              32    'h6f6b271e               
#   hwdata[5]               integral              32    'h7d8c17ef               
#   hwdata[6]               integral              32    'heafb415a               
#   hwdata[7]               integral              32    'h2d642ec3               
#   hwdata[8]               integral              32    'h2c98c36e               
#   hwdata[9]               integral              32    'h67bd29e1               
#   hwdata[10]              integral              32    'h2fda758c               
#   hwdata[11]              integral              32    'h59772cf9               
#   hwdata[12]              integral              32    'h9a2cd78c               
#   hwdata[13]              integral              32    'hddf9dc4                
#   hwdata[14]              integral              32    'hfc581f22               
#   hwdata[15]              integral              32    'h3ab1bd7c               
#   hwstrb[0]               integral              4     'b1111                   
#   hwstrb[1]               integral              4     'b1111                   
#   hwstrb[2]               integral              4     'b1111                   
#   hwstrb[3]               integral              4     'b1111                   
#   hwstrb[4]               integral              4     'b1111                   
#   hwstrb[5]               integral              4     'b1111                   
#   hwstrb[6]               integral              4     'b1111                   
#   hwstrb[7]               integral              4     'b1111                   
#   hwstrb[8]               integral              4     'b1111                   
#   hwstrb[9]               integral              4     'b1111                   
#   hwstrb[10]              integral              4     'b1111                   
#   hwstrb[11]              integral              4     'b1111                   
#   hwstrb[12]              integral              4     'b1111                   
#   hwstrb[13]              integral              4     'b1111                   
#   hwstrb[14]              integral              4     'b1111                   
#   hwstrb[15]              integral              4     'b1111                   
#   busyControl[0]          integral              1     'h0                      
#   busyControl[1]          integral              1     'h0                      
#   busyControl[2]          integral              1     'h0                      
#   busyControl[3]          integral              1     'h0                      
#   busyControl[4]          integral              1     'h0                      
#   busyControl[5]          integral              1     'h0                      
#   busyControl[6]          integral              1     'h0                      
#   busyControl[7]          integral              1     'h0                      
#   busyControl[8]          integral              1     'h0                      
#   busyControl[9]          integral              1     'h0                      
#   busyControl[10]         integral              1     'h0                      
#   busyControl[11]         integral              1     'h0                      
#   busyControl[12]         integral              1     'h0                      
#   busyControl[13]         integral              1     'h0                      
#   busyControl[14]         integral              1     'h0                      
#   busyControl[15]         integral              1     'h0                      
# -------------------------------------------------------------------------------
# ********************************************************************************************
# UVM_INFO ../../src/hvlTop/masterAgent/masterSequences/AhbMasterSequence.sv(129) @ 15: uvm_test_top.swasthik.ahbMasterAgent[1].ahbMasterSequencer@@ahbMasterWriteSequence[1] [AHB] req is of type: AhbMasterTransaction
# *****************************************master sequence***********************************
# -----------------------------------------------------------------------------------
# Name                      Type                  Size  Value                        
# -----------------------------------------------------------------------------------
# req                       AhbMasterTransaction  -     @1631                        
#   haddr                   integral              32    'ha8                         
#   hselx                   integral              2     'b10                         
#   hburst                  string                6     INCR16                       
#   hmastlock               integral              1     'h0                          
#   hprot                   string                29    PRIVILEGED_SECURE_INSTRUCTION
#   hsize                   string                4     WORD                         
#   hnonsec                 integral              1     'h1                          
#   hexcl                   integral              1     'h1                          
#   hmaster                 integral              1     1                            
#   htrans                  string                3     SEQ                          
#   hwrite                  string                5     WRITE                        
#   hreadyout               integral              1     'h0                          
#   hresp                   string                0     ""                           
#   hexokay                 integral              1     'h1                          
#   hready                  integral              1     'h0                          
#   noOfwaitStatesDetected  integral              32    'h0                          
#   hwdata[0]               integral              32    'h8af24442                   
#   hwdata[1]               integral              32    'h7b0e84d9                   
#   hwdata[2]               integral              32    'h9068da59                   
#   hwdata[3]               integral              32    'h4f6d8912                   
#   hwdata[4]               integral              32    'h60ad6521                   
#   hwdata[5]               integral              32    'h4e7ec488                   
#   hwdata[6]               integral              32    'h4388fde0                   
#   hwdata[7]               integral              32    'hb6657242                   
#   hwdata[8]               integral              32    'h605b898a                   
#   hwdata[9]               integral              32    'h1db39581                   
#   hwdata[10]              integral              32    'haf1c5326                   
#   hwdata[11]              integral              32    'ha1784747                   
#   hwdata[12]              integral              32    'hd2efbd66                   
#   hwdata[13]              integral              32    'hb4ef8805                   
#   hwdata[14]              integral              32    'hab9a0826                   
#   hwdata[15]              integral              32    'h920680f6                   
#   hwstrb[0]               integral              4     'b1111                       
#   hwstrb[1]               integral              4     'b1111                       
#   hwstrb[2]               integral              4     'b1111                       
#   hwstrb[3]               integral              4     'b1111                       
#   hwstrb[4]               integral              4     'b1111                       
#   hwstrb[5]               integral              4     'b1111                       
#   hwstrb[6]               integral              4     'b1111                       
#   hwstrb[7]               integral              4     'b1111                       
#   hwstrb[8]               integral              4     'b1111                       
#   hwstrb[9]               integral              4     'b1111                       
#   hwstrb[10]              integral              4     'b1111                       
#   hwstrb[11]              integral              4     'b1111                       
#   hwstrb[12]              integral              4     'b1111                       
#   hwstrb[13]              integral              4     'b1111                       
#   hwstrb[14]              integral              4     'b1111                       
#   hwstrb[15]              integral              4     'b1111                       
#   busyControl[0]          integral              1     'h0                          
#   busyControl[1]          integral              1     'h0                          
#   busyControl[2]          integral              1     'h0                          
#   busyControl[3]          integral              1     'h0                          
#   busyControl[4]          integral              1     'h0                          
#   busyControl[5]          integral              1     'h0                          
#   busyControl[6]          integral              1     'h0                          
#   busyControl[7]          integral              1     'h0                          
#   busyControl[8]          integral              1     'h0                          
#   busyControl[9]          integral              1     'h0                          
#   busyControl[10]         integral              1     'h0                          
#   busyControl[11]         integral              1     'h0                          
#   busyControl[12]         integral              1     'h0                          
#   busyControl[13]         integral              1     'h0                          
#   busyControl[14]         integral              1     'h0                          
#   busyControl[15]         integral              1     'h0                          
# -----------------------------------------------------------------------------------
# ********************************************************************************************
# UVM_INFO ../../src/hvlTop/slaveAgent/AhbSlaveSequenceItemConverter.sv(90) @ 15: reporter [ahbSlaveSequeceItemconverterClass] -------------------------------------------------------------
# THE RUN PHASE IS 0
# CONNVERTER NO OF WAIT STATES IS 0
# (((((((((((((((SENT ACK)))))))))))))))
# UVM_INFO ../../src/hvlTop/slaveAgent/AhbSlaveSequenceItemConverter.sv(90) @ 15: reporter [ahbSlaveSequeceItemconverterClass] -------------------------------------------------------------
# THE RUN PHASE IS 0
# CONNVERTER NO OF WAIT STATES IS 0
# (((((((((((((((SENT ACK)))))))))))))))
# UVM_INFO ../../src/hvlTop/masterAgent/AhbMasterDriverProxy.sv(68) @ 15: uvm_test_top.swasthik.ahbMasterAgent[0].ahbMasterDriverProxy [AhbMasterDriverProxy] REQ-MASTERTX 
#  -------------------------------------------------------------------------------
# Name                      Type                  Size  Value                    
# -------------------------------------------------------------------------------
# req                       AhbMasterTransaction  -     @1635                    
#   haddr                   integral              32    'hb8                     
#   hselx                   integral              2     'b1                      
#   hburst                  string                6     INCR16                   
#   hmastlock               integral              1     'h0                      
#   hprot                   string                25    NORMAL_SECURE_INSTRUCTION
#   hsize                   string                4     WORD                     
#   hnonsec                 integral              1     'h1                      
#   hexcl                   integral              1     'h1                      
#   hmaster                 integral              1     'd0                      
#   htrans                  string                3     SEQ                      
#   hwrite                  string                5     WRITE                    
#   hreadyout               integral              1     'h0                      
#   hresp                   string                0     ""                       
#   hexokay                 integral              1     'h0                      
#   hready                  integral              1     'h0                      
#   noOfwaitStatesDetected  integral              32    'h0                      
#   hwdata[0]               integral              32    'h5775b567               
#   hwdata[1]               integral              32    'hb29ad55d               
#   hwdata[2]               integral              32    'hfdde44a4               
#   hwdata[3]               integral              32    'h4abf8d28               
#   hwdata[4]               integral              32    'h6f6b271e               
#   hwdata[5]               integral              32    'h7d8c17ef               
#   hwdata[6]               integral              32    'heafb415a               
#   hwdata[7]               integral              32    'h2d642ec3               
#   hwdata[8]               integral              32    'h2c98c36e               
#   hwdata[9]               integral              32    'h67bd29e1               
#   hwdata[10]              integral              32    'h2fda758c               
#   hwdata[11]              integral              32    'h59772cf9               
#   hwdata[12]              integral              32    'h9a2cd78c               
#   hwdata[13]              integral              32    'hddf9dc4                
#   hwdata[14]              integral              32    'hfc581f22               
#   hwdata[15]              integral              32    'h3ab1bd7c               
#   hwstrb[0]               integral              4     'b1111                   
#   hwstrb[1]               integral              4     'b1111                   
#   hwstrb[2]               integral              4     'b1111                   
#   hwstrb[3]               integral              4     'b1111                   
#   hwstrb[4]               integral              4     'b1111                   
#   hwstrb[5]               integral              4     'b1111                   
#   hwstrb[6]               integral              4     'b1111                   
#   hwstrb[7]               integral              4     'b1111                   
#   hwstrb[8]               integral              4     'b1111                   
#   hwstrb[9]               integral              4     'b1111                   
#   hwstrb[10]              integral              4     'b1111                   
#   hwstrb[11]              integral              4     'b1111                   
#   hwstrb[12]              integral              4     'b1111                   
#   hwstrb[13]              integral              4     'b1111                   
#   hwstrb[14]              integral              4     'b1111                   
#   hwstrb[15]              integral              4     'b1111                   
#   busyControl[0]          integral              1     'h0                      
#   busyControl[1]          integral              1     'h0                      
#   busyControl[2]          integral              1     'h0                      
#   busyControl[3]          integral              1     'h0                      
#   busyControl[4]          integral              1     'h0                      
#   busyControl[5]          integral              1     'h0                      
#   busyControl[6]          integral              1     'h0                      
#   busyControl[7]          integral              1     'h0                      
#   busyControl[8]          integral              1     'h0                      
#   busyControl[9]          integral              1     'h0                      
#   busyControl[10]         integral              1     'h0                      
#   busyControl[11]         integral              1     'h0                      
#   busyControl[12]         integral              1     'h0                      
#   busyControl[13]         integral              1     'h0                      
#   busyControl[14]         integral              1     'h0                      
#   busyControl[15]         integral              1     'h0                      
# -------------------------------------------------------------------------------
# 
# ***************************IN DRIVER************************************************************************
# -------------------------------------------------------------------------------
# Name                      Type                  Size  Value                    
# -------------------------------------------------------------------------------
# req                       AhbMasterTransaction  -     @1635                    
#   haddr                   integral              32    'hb8                     
#   hselx                   integral              2     'b1                      
#   hburst                  string                6     INCR16                   
#   hmastlock               integral              1     'h0                      
#   hprot                   string                25    NORMAL_SECURE_INSTRUCTION
#   hsize                   string                4     WORD                     
#   hnonsec                 integral              1     'h1                      
#   hexcl                   integral              1     'h1                      
#   hmaster                 integral              1     'd0                      
#   htrans                  string                3     SEQ                      
#   hwrite                  string                5     WRITE                    
#   hreadyout               integral              1     'h0                      
#   hresp                   string                0     ""                       
#   hexokay                 integral              1     'h0                      
#   hready                  integral              1     'h0                      
#   noOfwaitStatesDetected  integral              32    'h0                      
#   hwdata[0]               integral              32    'h5775b567               
#   hwdata[1]               integral              32    'hb29ad55d               
#   hwdata[2]               integral              32    'hfdde44a4               
#   hwdata[3]               integral              32    'h4abf8d28               
#   hwdata[4]               integral              32    'h6f6b271e               
#   hwdata[5]               integral              32    'h7d8c17ef               
#   hwdata[6]               integral              32    'heafb415a               
#   hwdata[7]               integral              32    'h2d642ec3               
#   hwdata[8]               integral              32    'h2c98c36e               
#   hwdata[9]               integral              32    'h67bd29e1               
#   hwdata[10]              integral              32    'h2fda758c               
#   hwdata[11]              integral              32    'h59772cf9               
#   hwdata[12]              integral              32    'h9a2cd78c               
#   hwdata[13]              integral              32    'hddf9dc4                
#   hwdata[14]              integral              32    'hfc581f22               
#   hwdata[15]              integral              32    'h3ab1bd7c               
#   hwstrb[0]               integral              4     'b1111                   
#   hwstrb[1]               integral              4     'b1111                   
#   hwstrb[2]               integral              4     'b1111                   
#   hwstrb[3]               integral              4     'b1111                   
#   hwstrb[4]               integral              4     'b1111                   
#   hwstrb[5]               integral              4     'b1111                   
#   hwstrb[6]               integral              4     'b1111                   
#   hwstrb[7]               integral              4     'b1111                   
#   hwstrb[8]               integral              4     'b1111                   
#   hwstrb[9]               integral              4     'b1111                   
#   hwstrb[10]              integral              4     'b1111                   
#   hwstrb[11]              integral              4     'b1111                   
#   hwstrb[12]              integral              4     'b1111                   
#   hwstrb[13]              integral              4     'b1111                   
#   hwstrb[14]              integral              4     'b1111                   
#   hwstrb[15]              integral              4     'b1111                   
#   busyControl[0]          integral              1     'h0                      
#   busyControl[1]          integral              1     'h0                      
#   busyControl[2]          integral              1     'h0                      
#   busyControl[3]          integral              1     'h0                      
#   busyControl[4]          integral              1     'h0                      
#   busyControl[5]          integral              1     'h0                      
#   busyControl[6]          integral              1     'h0                      
#   busyControl[7]          integral              1     'h0                      
#   busyControl[8]          integral              1     'h0                      
#   busyControl[9]          integral              1     'h0                      
#   busyControl[10]         integral              1     'h0                      
#   busyControl[11]         integral              1     'h0                      
#   busyControl[12]         integral              1     'h0                      
#   busyControl[13]         integral              1     'h0                      
#   busyControl[14]         integral              1     'h0                      
#   busyControl[15]         integral              1     'h0                      
# -------------------------------------------------------------------------------
# ***************************************************************************************************
# INSIDE BURST
# UVM_INFO ../../src/hvlTop/masterAgent/AhbMasterDriverProxy.sv(68) @ 15: uvm_test_top.swasthik.ahbMasterAgent[1].ahbMasterDriverProxy [AhbMasterDriverProxy] REQ-MASTERTX 
#  -----------------------------------------------------------------------------------
# Name                      Type                  Size  Value                        
# -----------------------------------------------------------------------------------
# req                       AhbMasterTransaction  -     @1631                        
#   haddr                   integral              32    'ha8                         
#   hselx                   integral              2     'b10                         
#   hburst                  string                6     INCR16                       
#   hmastlock               integral              1     'h0                          
#   hprot                   string                29    PRIVILEGED_SECURE_INSTRUCTION
#   hsize                   string                4     WORD                         
#   hnonsec                 integral              1     'h1                          
#   hexcl                   integral              1     'h1                          
#   hmaster                 integral              1     1                            
#   htrans                  string                3     SEQ                          
#   hwrite                  string                5     WRITE                        
#   hreadyout               integral              1     'h0                          
#   hresp                   string                0     ""                           
#   hexokay                 integral              1     'h1                          
#   hready                  integral              1     'h0                          
#   noOfwaitStatesDetected  integral              32    'h0                          
#   hwdata[0]               integral              32    'h8af24442                   
#   hwdata[1]               integral              32    'h7b0e84d9                   
#   hwdata[2]               integral              32    'h9068da59                   
#   hwdata[3]               integral              32    'h4f6d8912                   
#   hwdata[4]               integral              32    'h60ad6521                   
#   hwdata[5]               integral              32    'h4e7ec488                   
#   hwdata[6]               integral              32    'h4388fde0                   
#   hwdata[7]               integral              32    'hb6657242                   
#   hwdata[8]               integral              32    'h605b898a                   
#   hwdata[9]               integral              32    'h1db39581                   
#   hwdata[10]              integral              32    'haf1c5326                   
#   hwdata[11]              integral              32    'ha1784747                   
#   hwdata[12]              integral              32    'hd2efbd66                   
#   hwdata[13]              integral              32    'hb4ef8805                   
#   hwdata[14]              integral              32    'hab9a0826                   
#   hwdata[15]              integral              32    'h920680f6                   
#   hwstrb[0]               integral              4     'b1111                       
#   hwstrb[1]               integral              4     'b1111                       
#   hwstrb[2]               integral              4     'b1111                       
#   hwstrb[3]               integral              4     'b1111                       
#   hwstrb[4]               integral              4     'b1111                       
#   hwstrb[5]               integral              4     'b1111                       
#   hwstrb[6]               integral              4     'b1111                       
#   hwstrb[7]               integral              4     'b1111                       
#   hwstrb[8]               integral              4     'b1111                       
#   hwstrb[9]               integral              4     'b1111                       
#   hwstrb[10]              integral              4     'b1111                       
#   hwstrb[11]              integral              4     'b1111                       
#   hwstrb[12]              integral              4     'b1111                       
#   hwstrb[13]              integral              4     'b1111                       
#   hwstrb[14]              integral              4     'b1111                       
#   hwstrb[15]              integral              4     'b1111                       
#   busyControl[0]          integral              1     'h0                          
#   busyControl[1]          integral              1     'h0                          
#   busyControl[2]          integral              1     'h0                          
#   busyControl[3]          integral              1     'h0                          
#   busyControl[4]          integral              1     'h0                          
#   busyControl[5]          integral              1     'h0                          
#   busyControl[6]          integral              1     'h0                          
#   busyControl[7]          integral              1     'h0                          
#   busyControl[8]          integral              1     'h0                          
#   busyControl[9]          integral              1     'h0                          
#   busyControl[10]         integral              1     'h0                          
#   busyControl[11]         integral              1     'h0                          
#   busyControl[12]         integral              1     'h0                          
#   busyControl[13]         integral              1     'h0                          
#   busyControl[14]         integral              1     'h0                          
#   busyControl[15]         integral              1     'h0                          
# -----------------------------------------------------------------------------------
# 
# ***************************IN DRIVER************************************************************************
# -----------------------------------------------------------------------------------
# Name                      Type                  Size  Value                        
# -----------------------------------------------------------------------------------
# req                       AhbMasterTransaction  -     @1631                        
#   haddr                   integral              32    'ha8                         
#   hselx                   integral              2     'b10                         
#   hburst                  string                6     INCR16                       
#   hmastlock               integral              1     'h0                          
#   hprot                   string                29    PRIVILEGED_SECURE_INSTRUCTION
#   hsize                   string                4     WORD                         
#   hnonsec                 integral              1     'h1                          
#   hexcl                   integral              1     'h1                          
#   hmaster                 integral              1     1                            
#   htrans                  string                3     SEQ                          
#   hwrite                  string                5     WRITE                        
#   hreadyout               integral              1     'h0                          
#   hresp                   string                0     ""                           
#   hexokay                 integral              1     'h1                          
#   hready                  integral              1     'h0                          
#   noOfwaitStatesDetected  integral              32    'h0                          
#   hwdata[0]               integral              32    'h8af24442                   
#   hwdata[1]               integral              32    'h7b0e84d9                   
#   hwdata[2]               integral              32    'h9068da59                   
#   hwdata[3]               integral              32    'h4f6d8912                   
#   hwdata[4]               integral              32    'h60ad6521                   
#   hwdata[5]               integral              32    'h4e7ec488                   
#   hwdata[6]               integral              32    'h4388fde0                   
#   hwdata[7]               integral              32    'hb6657242                   
#   hwdata[8]               integral              32    'h605b898a                   
#   hwdata[9]               integral              32    'h1db39581                   
#   hwdata[10]              integral              32    'haf1c5326                   
#   hwdata[11]              integral              32    'ha1784747                   
#   hwdata[12]              integral              32    'hd2efbd66                   
#   hwdata[13]              integral              32    'hb4ef8805                   
#   hwdata[14]              integral              32    'hab9a0826                   
#   hwdata[15]              integral              32    'h920680f6                   
#   hwstrb[0]               integral              4     'b1111                       
#   hwstrb[1]               integral              4     'b1111                       
#   hwstrb[2]               integral              4     'b1111                       
#   hwstrb[3]               integral              4     'b1111                       
#   hwstrb[4]               integral              4     'b1111                       
#   hwstrb[5]               integral              4     'b1111                       
#   hwstrb[6]               integral              4     'b1111                       
#   hwstrb[7]               integral              4     'b1111                       
#   hwstrb[8]               integral              4     'b1111                       
#   hwstrb[9]               integral              4     'b1111                       
#   hwstrb[10]              integral              4     'b1111                       
#   hwstrb[11]              integral              4     'b1111                       
#   hwstrb[12]              integral              4     'b1111                       
#   hwstrb[13]              integral              4     'b1111                       
#   hwstrb[14]              integral              4     'b1111                       
#   hwstrb[15]              integral              4     'b1111                       
#   busyControl[0]          integral              1     'h0                          
#   busyControl[1]          integral              1     'h0                          
#   busyControl[2]          integral              1     'h0                          
#   busyControl[3]          integral              1     'h0                          
#   busyControl[4]          integral              1     'h0                          
#   busyControl[5]          integral              1     'h0                          
#   busyControl[6]          integral              1     'h0                          
#   busyControl[7]          integral              1     'h0                          
#   busyControl[8]          integral              1     'h0                          
#   busyControl[9]          integral              1     'h0                          
#   busyControl[10]         integral              1     'h0                          
#   busyControl[11]         integral              1     'h0                          
#   busyControl[12]         integral              1     'h0                          
#   busyControl[13]         integral              1     'h0                          
#   busyControl[14]         integral              1     'h0                          
#   busyControl[15]         integral              1     'h0                          
# -----------------------------------------------------------------------------------
# ***************************************************************************************************
# INSIDE BURST
# SLAVE SEQUENCE DONE 
# SLAVE SEQUENCE DONE 
# ** Info: THE REQ IS x for the slave 0
#    Time: 16 ns  Scope: HdlTop.ahbinterconnect.genblk5[0].genblk1[1] File: ../../src/hdlTop/interconnect/AhbInterconnect.sv Line: 191
# ** Info: THE GRANT IS x for the slave 0 addr is 168 for master 1
#    Time: 16 ns  Scope: HdlTop.ahbinterconnect.genblk5[0].genblk1[1] File: ../../src/hdlTop/interconnect/AhbInterconnect.sv Line: 192
# ** Info: THE REQ IS x for the slave 1
#    Time: 16 ns  Scope: HdlTop.ahbinterconnect.genblk5[1].genblk1[1] File: ../../src/hdlTop/interconnect/AhbInterconnect.sv Line: 191
# ** Info: THE GRANT IS x for the slave 1 addr is 168 for master 1
#    Time: 16 ns  Scope: HdlTop.ahbinterconnect.genblk5[1].genblk1[1] File: ../../src/hdlTop/interconnect/AhbInterconnect.sv Line: 192
# ** Info: THE REQ IS x for the slave 0
#    Time: 16 ns  Scope: HdlTop.ahbinterconnect.genblk5[0].genblk1[0] File: ../../src/hdlTop/interconnect/AhbInterconnect.sv Line: 191
# ** Info: THE GRANT IS x for the slave 0 addr is 184 for master 0
#    Time: 16 ns  Scope: HdlTop.ahbinterconnect.genblk5[0].genblk1[0] File: ../../src/hdlTop/interconnect/AhbInterconnect.sv Line: 192
# ** Info: THE REQ IS x for the slave 1
#    Time: 16 ns  Scope: HdlTop.ahbinterconnect.genblk5[1].genblk1[0] File: ../../src/hdlTop/interconnect/AhbInterconnect.sv Line: 191
# ** Info: THE GRANT IS x for the slave 1 addr is 184 for master 0
#    Time: 16 ns  Scope: HdlTop.ahbinterconnect.genblk5[1].genblk1[0] File: ../../src/hdlTop/interconnect/AhbInterconnect.sv Line: 192
# check can_accept=1 slave_data_phase[s].valid = x  slave_hreadyout[s]=1
#                   16 3rd block can accept=1 slave=1
# slave_has_owner = 0 slave = 1 
# check can_accept=1 slave_data_phase[s].valid = x  slave_hreadyout[s]=1
#                   16 3rd block can accept=1 slave=0
# slave_has_owner = 0 slave = 0 
# slave number 0 address 168
# slave number 0 address 184
# slave number 0 address 168
# slave number 0 address 184
# ** Info: THE REQ IS 11 for the slave 0
#    Time: 16 ns  Scope: HdlTop.ahbinterconnect.genblk5[0].genblk1[0] File: ../../src/hdlTop/interconnect/AhbInterconnect.sv Line: 191
# ** Info: THE GRANT IS x for the slave 0 addr is 184 for master 0
#    Time: 16 ns  Scope: HdlTop.ahbinterconnect.genblk5[0].genblk1[0] File: ../../src/hdlTop/interconnect/AhbInterconnect.sv Line: 192
# ** Info: THE REQ IS 11 for the slave 0
#    Time: 16 ns  Scope: HdlTop.ahbinterconnect.genblk5[0].genblk1[1] File: ../../src/hdlTop/interconnect/AhbInterconnect.sv Line: 191
# ** Info: THE GRANT IS x for the slave 0 addr is 168 for master 1
#    Time: 16 ns  Scope: HdlTop.ahbinterconnect.genblk5[0].genblk1[1] File: ../../src/hdlTop/interconnect/AhbInterconnect.sv Line: 192
# ** Info: THE REQ IS x for the slave 1
#    Time: 16 ns  Scope: HdlTop.ahbinterconnect.genblk5[1].genblk1[0] File: ../../src/hdlTop/interconnect/AhbInterconnect.sv Line: 191
# ** Info: THE GRANT IS x for the slave 1 addr is 184 for master 0
#    Time: 16 ns  Scope: HdlTop.ahbinterconnect.genblk5[1].genblk1[0] File: ../../src/hdlTop/interconnect/AhbInterconnect.sv Line: 192
# ** Info: THE REQ IS x for the slave 1
#    Time: 16 ns  Scope: HdlTop.ahbinterconnect.genblk5[1].genblk1[1] File: ../../src/hdlTop/interconnect/AhbInterconnect.sv Line: 191
# ** Info: THE GRANT IS x for the slave 1 addr is 168 for master 1
#    Time: 16 ns  Scope: HdlTop.ahbinterconnect.genblk5[1].genblk1[1] File: ../../src/hdlTop/interconnect/AhbInterconnect.sv Line: 192
# check can_accept=1 slave_data_phase[s].valid = x  slave_hreadyout[s]=1
#                   16 3rd block can accept=1 slave=0
# slave_has_owner = 0 slave = 0 
# dead case s:          0 | m:          0
#                   16 inside 3rd block master_request[s=0][m= 0] htrans=2
#                   16 3rd block grant 1
# ** Info: THE REQ IS 11 for the slave 0
#    Time: 16 ns  Scope: HdlTop.ahbinterconnect.genblk5[0].genblk1[0] File: ../../src/hdlTop/interconnect/AhbInterconnect.sv Line: 191
# ** Info: THE GRANT IS 1 for the slave 0 addr is 184 for master 0
#    Time: 16 ns  Scope: HdlTop.ahbinterconnect.genblk5[0].genblk1[0] File: ../../src/hdlTop/interconnect/AhbInterconnect.sv Line: 192
# ** Info: THE REQ IS 11 for the slave 0
#    Time: 16 ns  Scope: HdlTop.ahbinterconnect.genblk5[0].genblk1[1] File: ../../src/hdlTop/interconnect/AhbInterconnect.sv Line: 191
# ** Info: THE GRANT IS x for the slave 0 addr is 168 for master 1
#    Time: 16 ns  Scope: HdlTop.ahbinterconnect.genblk5[0].genblk1[1] File: ../../src/hdlTop/interconnect/AhbInterconnect.sv Line: 192
# ** Info: THE REQ IS x for the slave 1
#    Time: 16 ns  Scope: HdlTop.ahbinterconnect.genblk5[1].genblk1[0] File: ../../src/hdlTop/interconnect/AhbInterconnect.sv Line: 191
# ** Info: THE GRANT IS x for the slave 1 addr is 184 for master 0
#    Time: 16 ns  Scope: HdlTop.ahbinterconnect.genblk5[1].genblk1[0] File: ../../src/hdlTop/interconnect/AhbInterconnect.sv Line: 192
# ** Info: THE REQ IS x for the slave 1
#    Time: 16 ns  Scope: HdlTop.ahbinterconnect.genblk5[1].genblk1[1] File: ../../src/hdlTop/interconnect/AhbInterconnect.sv Line: 191
# ** Info: THE GRANT IS x for the slave 1 addr is 168 for master 1
#    Time: 16 ns  Scope: HdlTop.ahbinterconnect.genblk5[1].genblk1[1] File: ../../src/hdlTop/interconnect/AhbInterconnect.sv Line: 192
# last grant s=0 m=0 g==1
#                   16else hready 1 master [0] can_accept=1 oldest_is_ready=1
#                   16else hready 0 master [1] can_accept=0 oldest_is_ready=1
# ENTERED THIS BLOCK @16
# [16] slave_hwdata_stable[0] = x, slave_hwstrb_stable[0] = x
# [16] master_pipeline[0][master_wr_ptr[0]].haddr = 0
# slave number 0 address 184
# last grant s=0 m=0 g==1
#                   16else hready 1 master [0] can_accept=1 oldest_is_ready=1
#                   16else hready 0 master [1] can_accept=0 oldest_is_ready=1
#  1st hwdata = x
# [16] my_hwdata = x ahbSlaveInterface[0].haddr = 184
#  2nd hwdata = x
#  1st hwdata = x
# [16] my_hwdata = x ahbSlaveInterface[1].haddr = x
#  2nd hwdata = x
# ENTERED THIS BLOCK @16
# [16] slave_hwdata_stable[0] = x, slave_hwstrb_stable[0] = x
# [16] 3rd  slave_data_phase.[0].haddr = 184
#                   25 first master_grant[slaveloop=0][masterloop=0]=1
# [25] current_owner[0] = 0
# [25] new_c_owner[0] = 0
# [25] my_slave = 0, my_read_owner = 0
# [25] my_slave = 1, my_read_owner = x
# [25] my_slave = 1, my_read_owner = x
#  time = 25, master = 0, slave = 0,  read_owner = 0
# 25 check slave_hreadyout[0] = 1
# last grant s=0 m=0 g==1
#                   25else hready 1 master [0] can_accept=1 oldest_is_ready=1
#                   25else hready 0 master [1] can_accept=0 oldest_is_ready=1
# ENTERED THIS BLOCK @25
# [25] slave_hwdata_stable[0] = x, slave_hwstrb_stable[0] = x
# check can_accept=1 slave_data_phase[s].valid = x  slave_hreadyout[s]=1
#                   25 3rd block can accept=1 slave=1
# slave_has_owner = x slave = 1 
# check can_accept=1 slave_data_phase[s].valid = 1  slave_hreadyout[s]=1
#                   25 3rd block can accept=1 slave=0
# slave_has_owner = 1 slave = 0 
# dead case s:          0 | m:          0
#                   25 inside 3rd block master_request[s=0][m= 0] htrans=2
#                   25 3rd block grant 1
# ** Info: THE REQ IS 11 for the slave 0
#    Time: 25 ns  Scope: HdlTop.ahbinterconnect.genblk5[0].genblk1[0] File: ../../src/hdlTop/interconnect/AhbInterconnect.sv Line: 191
# ** Info: THE GRANT IS 1 for the slave 0 addr is 184 for master 0
#    Time: 25 ns  Scope: HdlTop.ahbinterconnect.genblk5[0].genblk1[0] File: ../../src/hdlTop/interconnect/AhbInterconnect.sv Line: 192
# ** Info: THE REQ IS 11 for the slave 0
#    Time: 25 ns  Scope: HdlTop.ahbinterconnect.genblk5[0].genblk1[1] File: ../../src/hdlTop/interconnect/AhbInterconnect.sv Line: 191
# ** Info: THE GRANT IS x for the slave 0 addr is 168 for master 1
#    Time: 25 ns  Scope: HdlTop.ahbinterconnect.genblk5[0].genblk1[1] File: ../../src/hdlTop/interconnect/AhbInterconnect.sv Line: 192
# ** Info: THE REQ IS x for the slave 1
#    Time: 25 ns  Scope: HdlTop.ahbinterconnect.genblk5[1].genblk1[0] File: ../../src/hdlTop/interconnect/AhbInterconnect.sv Line: 191
# ** Info: THE GRANT IS x for the slave 1 addr is 184 for master 0
#    Time: 25 ns  Scope: HdlTop.ahbinterconnect.genblk5[1].genblk1[0] File: ../../src/hdlTop/interconnect/AhbInterconnect.sv Line: 192
# ** Info: THE REQ IS x for the slave 1
#    Time: 25 ns  Scope: HdlTop.ahbinterconnect.genblk5[1].genblk1[1] File: ../../src/hdlTop/interconnect/AhbInterconnect.sv Line: 191
# ** Info: THE GRANT IS x for the slave 1 addr is 168 for master 1
#    Time: 25 ns  Scope: HdlTop.ahbinterconnect.genblk5[1].genblk1[1] File: ../../src/hdlTop/interconnect/AhbInterconnect.sv Line: 192
# 25 check slave_hreadyout[0] = 1
# last grant s=0 m=0 g==1
#                   25else hready 1 master [0] can_accept=1 oldest_is_ready=1
#                   25else hready 0 master [1] can_accept=0 oldest_is_ready=1
# check can_accept=1 slave_data_phase[s].valid = 1  slave_hreadyout[s]=1
#                   25 3rd block can accept=1 slave=0
# slave_has_owner = 1 slave = 0 
# dead case s:          0 | m:          1
#                   25 inside 3rd block master_request[s=0][m= 1] htrans=2
#                   25 3rd block grant 1
# ** Info: THE REQ IS 11 for the slave 0
#    Time: 25 ns  Scope: HdlTop.ahbinterconnect.genblk5[0].genblk1[0] File: ../../src/hdlTop/interconnect/AhbInterconnect.sv Line: 191
# ** Info: THE GRANT IS x for the slave 0 addr is 184 for master 0
#    Time: 25 ns  Scope: HdlTop.ahbinterconnect.genblk5[0].genblk1[0] File: ../../src/hdlTop/interconnect/AhbInterconnect.sv Line: 192
# ** Info: THE REQ IS 11 for the slave 0
#    Time: 25 ns  Scope: HdlTop.ahbinterconnect.genblk5[0].genblk1[1] File: ../../src/hdlTop/interconnect/AhbInterconnect.sv Line: 191
# ** Info: THE GRANT IS 1 for the slave 0 addr is 168 for master 1
#    Time: 25 ns  Scope: HdlTop.ahbinterconnect.genblk5[0].genblk1[1] File: ../../src/hdlTop/interconnect/AhbInterconnect.sv Line: 192
# ** Info: THE REQ IS x for the slave 1
#    Time: 25 ns  Scope: HdlTop.ahbinterconnect.genblk5[1].genblk1[0] File: ../../src/hdlTop/interconnect/AhbInterconnect.sv Line: 191
# ** Info: THE GRANT IS x for the slave 1 addr is 184 for master 0
#    Time: 25 ns  Scope: HdlTop.ahbinterconnect.genblk5[1].genblk1[0] File: ../../src/hdlTop/interconnect/AhbInterconnect.sv Line: 192
# ** Info: THE REQ IS x for the slave 1
#    Time: 25 ns  Scope: HdlTop.ahbinterconnect.genblk5[1].genblk1[1] File: ../../src/hdlTop/interconnect/AhbInterconnect.sv Line: 191
# ** Info: THE GRANT IS x for the slave 1 addr is 168 for master 1
#    Time: 25 ns  Scope: HdlTop.ahbinterconnect.genblk5[1].genblk1[1] File: ../../src/hdlTop/interconnect/AhbInterconnect.sv Line: 192
# 25 check slave_hreadyout[0] = 1
#                   25else hready 0 master [0] can_accept=0 oldest_is_ready=1
# last grant s=0 m=1 g==1
#                   25else hready 1 master [1] can_accept=1 oldest_is_ready=1
# ENTERED THIS BLOCK @25
# [25] slave_hwdata_stable[0] = x, slave_hwstrb_stable[0] = x
# [25] master_pipeline[1][master_wr_ptr[1]].haddr = 0
# slave number 0 address 168
# 25 check slave_hreadyout[0] = 1
#                   25else hready 0 master [0] can_accept=0 oldest_is_ready=1
# last grant s=0 m=1 g==1
#                   25else hready 1 master [1] can_accept=1 oldest_is_ready=1
#  1st hwdata = x
# [25] my_hwdata = x ahbSlaveInterface[0].haddr = 168
#  2nd hwdata = x
#  1st hwdata = x
# [25] my_hwdata = x ahbSlaveInterface[1].haddr = x
#  2nd hwdata = x
# DRIVER
# ishika 25 haddr = x
# [25] from master monitor = haddr=184, hwdata = x, hrdata = x, hwstrb=x 
# ** Warning: (vsim-8233) ../../src/hvlTop/masterAgent/AhbMasterSequenceItemConverter.sv(167): Index 16 into array dimension [0:0] is out of bounds.
#    Time: 25 ns  Iteration: 11  Region: /uvm_pkg::uvm_task_phase::execute
# ** Warning: (vsim-8233) ../../src/hvlTop/masterAgent/AhbMasterSequenceItemConverter.sv(167): Index 15 into array dimension [0:0] is out of bounds.
#    Time: 25 ns  Iteration: 11  Region: /uvm_pkg::uvm_task_phase::execute
# ** Warning: (vsim-8233) ../../src/hvlTop/masterAgent/AhbMasterSequenceItemConverter.sv(167): Index 14 into array dimension [0:0] is out of bounds.
#    Time: 25 ns  Iteration: 11  Region: /uvm_pkg::uvm_task_phase::execute
# ** Warning: (vsim-8233) ../../src/hvlTop/masterAgent/AhbMasterSequenceItemConverter.sv(167): Index 13 into array dimension [0:0] is out of bounds.
#    Time: 25 ns  Iteration: 11  Region: /uvm_pkg::uvm_task_phase::execute
# ** Warning: (vsim-8233) ../../src/hvlTop/masterAgent/AhbMasterSequenceItemConverter.sv(167): Index 12 into array dimension [0:0] is out of bounds.
#    Time: 25 ns  Iteration: 11  Region: /uvm_pkg::uvm_task_phase::execute
# ** Warning: (vsim-8233) ../../src/hvlTop/masterAgent/AhbMasterSequenceItemConverter.sv(167): Index 11 into array dimension [0:0] is out of bounds.
#    Time: 25 ns  Iteration: 11  Region: /uvm_pkg::uvm_task_phase::execute
# ** Warning: (vsim-8233) ../../src/hvlTop/masterAgent/AhbMasterSequenceItemConverter.sv(167): Index 10 into array dimension [0:0] is out of bounds.
#    Time: 25 ns  Iteration: 11  Region: /uvm_pkg::uvm_task_phase::execute
# ** Warning: (vsim-8233) ../../src/hvlTop/masterAgent/AhbMasterSequenceItemConverter.sv(167): Index 9 into array dimension [0:0] is out of bounds.
#    Time: 25 ns  Iteration: 11  Region: /uvm_pkg::uvm_task_phase::execute
# ** Warning: (vsim-8233) ../../src/hvlTop/masterAgent/AhbMasterSequenceItemConverter.sv(167): Index 8 into array dimension [0:0] is out of bounds.
#    Time: 25 ns  Iteration: 11  Region: /uvm_pkg::uvm_task_phase::execute
