# vsim -vopt work.HvlTop work.HdlTop -voptargs="+acc=npr" -sv_seed random -assertdebug "+UVM_TESTNAME=AhbWrap4WriteFollowedByReadTest" "+UVM_VERBOSITY=UVM_HIGH" "+define+" -l AhbWrap4WriteFollowedByReadTest/AhbWrap4WriteFollowedByReadTest.log -sva -coverage -c -do "log -r /*; add wave -r /*; coverage save -onexit -assert -directive -cvg -codeAll AhbWrap4WriteFollowedByReadTest/AhbWrap4WriteFollowedByReadTest_coverage.ucdb; run -all; exit" -wlf AhbWrap4WriteFollowedByReadTest/waveform.wlf 
# Start time: 09:55:31 on May 12,2026
# ** Note: (vsim-3812) Design is being optimized...
# ** Warning: ../../src/hdlTop/masterAgentBFM/AhbMasterAgentBFM.sv(41): (vopt-2685) [TFMPC] - Too few port connections for 'ahbMasterMonitorBFM'.  Expected 20, found 19.
# ** Warning: ../../src/hdlTop/masterAgentBFM/AhbMasterAgentBFM.sv(41): (vopt-2718) [TFMPC] - Missing connection for port 'hselx'.
# ** Warning: ../../src/hdlTop/masterAgentBFM/AhbMasterAgentBFM.sv(41): (vopt-2685) [TFMPC] - Too few port connections for 'ahbMasterMonitorBFM'.  Expected 20, found 19.
# ** Warning: ../../src/hdlTop/masterAgentBFM/AhbMasterAgentBFM.sv(41): (vopt-2718) [TFMPC] - Missing connection for port 'hselx'.
# ** Warning: ../../src/hvlTop/environment/AhbScoreboard.sv(250): (vopt-2897) Using non-standard foreach loop variable list syntax.
# ** Warning: ../../src/hvlTop/environment/AhbScoreboard.sv(250): (vopt-2897) Using non-standard foreach loop variable list syntax.
# ** Warning: ../../src/hvlTop/tb/test/AhbBaseTest.sv(63): (vopt-2240) Treating stand-alone use of function 'randomize' as an implicit VOID cast.
# //  Questa Sim
# //  Version 10.6c linux Jul 25 2017
# //
# //  Copyright 1991-2017 Mentor Graphics Corporation
# //  All Rights Reserved.
# //
# //  QuestaSim and its associated documentation contain trade
# //  secrets and commercial or financial information that are the property of
# //  Mentor Graphics Corporation and are privileged, confidential,
# //  and exempt from disclosure under the Freedom of Information Act,
# //  5 U.S.C. Section 552. Furthermore, this information
# //  is prohibited from disclosure under the Trade Secrets Act,
# //  18 U.S.C. Section 1905.
# //
# Loading sv_std.std
# Loading work.AhbMasterDriverBFM(fast)
# Loading work.AhbSlaveMonitorBFM(fast)
# Loading work.AhbGlobalPackage(fast)
# Loading mtiUvm.uvm_pkg
# Loading work.AhbSlavePackage(fast)
# Loading work.AhbMasterPackage(fast)
# Loading work.AhbEnvironmentPackage(fast)
# Loading work.AhbSlaveSequencePackage(fast)
# Loading work.AhbMasterSequencePackage(fast)
# Loading work.AhbVirtualSequencePackage(fast)
# Loading work.AhbTestPackage(fast)
# Loading work.AhbMasterMonitorBFM(fast)
# Loading work.AhbSlaveDriverBFM(fast)
# Loading work.HvlTop(fast)
# Loading work.HdlTop(fast)
# Loading work.AhbInterconnect_sv_unit(fast)
# Loading work.AhbInterconnect(fast)
# Loading work.AhbMasterAgentBFM(fast)
# Loading work.AhbMasterDriverBFM_sv_unit(fast)
# Loading work.AhbMasterDriverBFM(fast)
# Loading work.AhbMasterMonitorBFM_sv_unit(fast)
# Loading work.AhbMasterMonitorBFM(fast)
# Loading work.AhbMasterAgentBFM(fast__1)
# Loading work.AhbSlaveAgentBFM(fast)
# Loading work.AhbSlaveDriverBFM_sv_unit(fast)
# Loading work.AhbSlaveDriverBFM(fast)
# Loading work.AhbSlaveMonitorBFM_sv_unit(fast)
# Loading work.AhbSlaveMonitorBFM(fast)
# Loading work.AhbSlaveAgentBFM(fast__1)
# Loading mtiUvm.questa_uvm_pkg(fast)
# Loading work.AhbInterface_sv_unit(fast)
# Loading work.AhbInterface(fast__1)
# Loading work.AhbInterface(fast__2)
# ** Warning: (vsim-3015) ../../src/hdlTop/slaveAgentBFM/AhbSlaveAgentBFM.sv(40): [PCDPC] - Port size (2) does not match connection size (1) for port 'hselx'. The port definition is at: ../../src/hdlTop/slaveAgentBFM/AhbSlaveMonitorBFM.sv(25).
#    Time: 0 ns  Iteration: 0  Instance: /HdlTop/genblk2[0]/ahbSlaveAgentBFM/ahbSlaveMonitorBFM File: ../../src/hdlTop/slaveAgentBFM/AhbSlaveMonitorBFM.sv
# ** Warning: (vsim-3015) ../../src/hdlTop/slaveAgentBFM/AhbSlaveAgentBFM.sv(40): [PCDPC] - Port size (2) does not match connection size (1) for port 'hselx'. The port definition is at: ../../src/hdlTop/slaveAgentBFM/AhbSlaveMonitorBFM.sv(25).
#    Time: 0 ns  Iteration: 0  Instance: /HdlTop/genblk2[1]/ahbSlaveAgentBFM/ahbSlaveMonitorBFM File: ../../src/hdlTop/slaveAgentBFM/AhbSlaveMonitorBFM.sv
# Loading /tools/mentor/questasim_10.6c/questasim/uvm-1.1d/linux/uvm_dpi.so
# Sv_Seed = 980845829
# log -r /*
#  add wave -r /*
#  coverage save -onexit -assert -directive -cvg -codeAll AhbWrap4WriteFollowedByReadTest/AhbWrap4WriteFollowedByReadTest_coverage.ucdb
#  run -all
# ----------------------------------------------------------------
# UVM-1.1d
# (C) 2007-2013 Mentor Graphics Corporation
# (C) 2007-2013 Cadence Design Systems, Inc.
# (C) 2006-2013 Synopsys, Inc.
# (C) 2011-2013 Cypress Semiconductor Corp.
# ----------------------------------------------------------------
# 
#   ***********       IMPORTANT RELEASE NOTES         ************
# 
#   You are using a version of the UVM library that has been compiled
#   with `UVM_NO_DEPRECATED undefined.
#   See http://www.eda.org/svdb/view.php?id=3313 for more details.
# 
#   You are using a version of the UVM library that has been compiled
#   with `UVM_OBJECT_MUST_HAVE_CONSTRUCTOR undefined.
#   See http://www.eda.org/svdb/view.php?id=3770 for more details.
# 
#       (Specify +UVM_NO_RELNOTES to turn off this notice)
# 
# UVM_INFO verilog_src/questa_uvm_pkg-1.2/src/questa_uvm_pkg.sv(215) @ 0: reporter [Questa UVM] QUESTA_UVM-1.2.3
# UVM_INFO verilog_src/questa_uvm_pkg-1.2/src/questa_uvm_pkg.sv(217) @ 0: reporter [Questa UVM]  questa_uvm::init(+struct)
# UVM_INFO @ 0: reporter [RNTST] Running test AhbWrap4WriteFollowedByReadTest...
# UVM_INFO ../../src/hdlTop/HdlTop.sv(13) @ 0: reporter [HDL_TOP] HDL_TOP
# UVM_INFO ../../src/hdlTop/masterAgentBFM/AhbMasterAgentBFM.sv(15) @ 0: reporter [ahb master agent bfm] AHB MASTER AGENT BFM id is 0
# THE MASTER AGENT ARE  CREATED AS EXPECTED HdlTop.genblk1[0].ahbMasterAgentBFM.ahbMasterDriverBFM.MASTER_DRIVER
# UVM_INFO ../../src/hdlTop/masterAgentBFM/AhbMasterMonitorBFM.sv(43) @ 0: reporter [AHB_MASTER_MONITOR_BFM] AHB MASTER MONITOR BFM
# UVM_INFO ../../src/hdlTop/masterAgentBFM/AhbMasterAgentBFM.sv(15) @ 0: reporter [ahb master agent bfm] AHB MASTER AGENT BFM id is 1
# THE MASTER AGENT ARE  CREATED AS EXPECTED HdlTop.genblk1[1].ahbMasterAgentBFM.ahbMasterDriverBFM.MASTER_DRIVER
# UVM_INFO ../../src/hdlTop/masterAgentBFM/AhbMasterMonitorBFM.sv(43) @ 0: reporter [AHB_MASTER_MONITOR_BFM] AHB MASTER MONITOR BFM
# UVM_INFO ../../src/hdlTop/slaveAgentBFM/AhbSlaveAgentBFM.sv(14) @ 0: reporter [ahb slave agent bfm] AHB SLAVE AGENT BFM 0
# UVM_INFO ../../src/hdlTop/slaveAgentBFM/AhbSlaveDriverBFM.sv(40) @ 0: reporter [AHB_SLAVE_DRIVER_BFM] AHB_SLAVE_DRIVER_BFM
# UVM_INFO ../../src/hdlTop/slaveAgentBFM/AhbSlaveMonitorBFM.sv(44) @ 0: reporter [AHB_SLAVE_MONITOR_BFM] AHB_SLAVE_MONITOR_BFM
# UVM_INFO ../../src/hdlTop/slaveAgentBFM/AhbSlaveAgentBFM.sv(14) @ 0: reporter [ahb slave agent bfm] AHB SLAVE AGENT BFM 1
# UVM_INFO ../../src/hdlTop/slaveAgentBFM/AhbSlaveDriverBFM.sv(40) @ 0: reporter [AHB_SLAVE_DRIVER_BFM] AHB_SLAVE_DRIVER_BFM
# UVM_INFO ../../src/hdlTop/slaveAgentBFM/AhbSlaveMonitorBFM.sv(44) @ 0: reporter [AHB_SLAVE_MONITOR_BFM] AHB_SLAVE_MONITOR_BFM
# [0] master_request[1][0] = x , master_hmastlock[0] == x
# [0] master_request[1][1] = x , master_hmastlock[1] == x
# [0] master_request[0][0] = x , master_hmastlock[0] == x
# [0] master_request[0][1] = x , master_hmastlock[1] == x
# [0] master_request[1][0] = x , master_hmastlock[0] == x
# [0] master_request[1][1] = x , master_hmastlock[1] == x
# [0] master_request[0][0] = x , master_hmastlock[0] == x
# [0] master_request[0][1] = x , master_hmastlock[1] == x
# THE MASTER FIELD IS AhbMasterDriverBFM0 
# THE MASTER FIELD IS AhbMasterDriverBFM1 
# UVM_INFO ../../src/hvlTop/tb/test/AhbBaseTest.sv(57) @ 0: uvm_test_top [AhbWrap4WriteFollowedByReadTest] 
# AHB_MASTER_CONFIG[0]
# ----------------------------------------------------------
# Name                     Type                  Size  Value
# ----------------------------------------------------------
# AhbMasterAgentConfig[0]  AhbMasterAgentConfig  -     @505 
#   is_active              integral              1     1    
#   hasCoverage            integral              1     1    
# ----------------------------------------------------------
# 
# UVM_INFO ../../src/hvlTop/tb/test/AhbBaseTest.sv(57) @ 0: uvm_test_top [AhbWrap4WriteFollowedByReadTest] 
# AHB_MASTER_CONFIG[1]
# ----------------------------------------------------------
# Name                     Type                  Size  Value
# ----------------------------------------------------------
# AhbMasterAgentConfig[1]  AhbMasterAgentConfig  -     @506 
#   is_active              integral              1     1    
#   hasCoverage            integral              1     1    
# ----------------------------------------------------------
# 
# THE FIELD IS AhbSlaveDriverBFM0
# THE FIELD IS AhbSlaveDriverBFM1
# UVM_INFO ../../src/hvlTop/tb/test/AhbBaseTest.sv(70) @ 0: uvm_test_top [AhbWrap4WriteFollowedByReadTest] 
# AHB_SLAVE_CONFIG[0]
# -------------------------------------------------------------
# Name                    Type                 Size  Value     
# -------------------------------------------------------------
# AhbSlaveAgentConfig[0]  AhbSlaveAgentConfig  -     @517      
#   is_active             string               10    UVM_ACTIVE
#   hasCoverage           integral             1     1         
#   maximumAddress        integral             32    'h0       
#   minimumAddress        integral             32    'h0       
# -------------------------------------------------------------
# 
# UVM_INFO ../../src/hvlTop/tb/test/AhbBaseTest.sv(70) @ 0: uvm_test_top [AhbWrap4WriteFollowedByReadTest] 
# AHB_SLAVE_CONFIG[1]
# -------------------------------------------------------------
# Name                    Type                 Size  Value     
# -------------------------------------------------------------
# AhbSlaveAgentConfig[1]  AhbSlaveAgentConfig  -     @518      
#   is_active             string               10    UVM_ACTIVE
#   hasCoverage           integral             1     1         
#   maximumAddress        integral             32    'h0       
#   minimumAddress        integral             32    'h0       
# -------------------------------------------------------------
# 
# UVM_INFO ../../src/hvlTop/tb/test/AhbBaseTest.sv(74) @ 0: uvm_test_top [AhbWrap4WriteFollowedByReadTest] 
# AHB_ENV_CONFIG
# -------------------------------------------------------------
# Name                   Type                  Size  Value     
# -------------------------------------------------------------
# ahbEnvironmentConfig   AhbEnvironmentConfig  -     @504      
#   hasScoreboard        integral              1     1         
#   hasVirtualSequencer  integral              1     1         
#   noOfMasters          integral              32    'd2       
#   noOfSlaves           integral              32    'd2       
#   operationMode        integral              2     2         
#   operationMode        string                10    WRITE_READ
# -------------------------------------------------------------
# 
# ASSIGNMENT IN ENV IS 0
# ASSIGNMENT IN ENV IS 0
# THE CONFIG IS 65903
# THE CONFIG IS 131439
# THE NUMBER OF WAIT IS 0
# THE NUMBER OF WAIT IS 0
# UVM_INFO @ 0: reporter [UVMTOP] UVM testbench topology:
# ----------------------------------------------------------------------------
# Name                            Type                             Size  Value
# ----------------------------------------------------------------------------
# uvm_test_top                    AhbWrap4WriteFollowedByReadTest  -     @473 
#   swasthik                      AhbEnvironment                   -     @533 
#     ahbMasterAgent[0]           AhbMasterAgent                   -     @543 
#       ahbMasterCoverage         AhbMasterCoverage                -     @1025
#         analysis_imp            uvm_analysis_imp                 -     @1032
#       ahbMasterDriverProxy      AhbMasterDriverProxy             -     @987 
#         rsp_port                uvm_analysis_port                -     @1002
#         seq_item_port           uvm_seq_item_pull_port           -     @994 
#       ahbMasterMonitorProxy     AhbMasterMonitorProxy            -     @1010
#         ahbMasterAnalysisPort   uvm_analysis_port                -     @1017
#       ahbMasterSequencer        AhbMasterSequencer               -     @878 
#         rsp_export              uvm_analysis_export              -     @885 
#         seq_item_export         uvm_seq_item_pull_imp            -     @979 
#         arbitration_queue       array                            0     -    
#         lock_queue              array                            0     -    
#         num_last_reqs           integral                         32    'd1  
#         num_last_rsps           integral                         32    'd1  
#     ahbMasterAgent[1]           AhbMasterAgent                   -     @550 
#       ahbMasterCoverage         AhbMasterCoverage                -     @1193
#         analysis_imp            uvm_analysis_imp                 -     @1200
#       ahbMasterDriverProxy      AhbMasterDriverProxy             -     @1155
#         rsp_port                uvm_analysis_port                -     @1170
#         seq_item_port           uvm_seq_item_pull_port           -     @1162
#       ahbMasterMonitorProxy     AhbMasterMonitorProxy            -     @1178
#         ahbMasterAnalysisPort   uvm_analysis_port                -     @1185
#       ahbMasterSequencer        AhbMasterSequencer               -     @1046
#         rsp_export              uvm_analysis_export              -     @1053
#         seq_item_export         uvm_seq_item_pull_imp            -     @1147
#         arbitration_queue       array                            0     -    
#         lock_queue              array                            0     -    
#         num_last_reqs           integral                         32    'd1  
#         num_last_rsps           integral                         32    'd1  
#     ahbScoreboard               AhbScoreboard                    -     @682 
#       ahbMasterAnalysisFifo[0]  uvm_tlm_analysis_fifo #(T)       -     @689 
#         analysis_export         uvm_analysis_imp                 -     @728 
#         get_ap                  uvm_analysis_port                -     @720 
#         get_peek_export         uvm_get_peek_imp                 -     @704 
#         put_ap                  uvm_analysis_port                -     @712 
#         put_export              uvm_put_imp                      -     @696 
#       ahbMasterAnalysisFifo[1]  uvm_tlm_analysis_fifo #(T)       -     @736 
#         analysis_export         uvm_analysis_imp                 -     @775 
#         get_ap                  uvm_analysis_port                -     @767 
#         get_peek_export         uvm_get_peek_imp                 -     @751 
#         put_ap                  uvm_analysis_port                -     @759 
#         put_export              uvm_put_imp                      -     @743 
#       ahbSlaveAnalysisFifo[0]   uvm_tlm_analysis_fifo #(T)       -     @783 
#         analysis_export         uvm_analysis_imp                 -     @822 
#         get_ap                  uvm_analysis_port                -     @814 
#         get_peek_export         uvm_get_peek_imp                 -     @798 
#         put_ap                  uvm_analysis_port                -     @806 
#         put_export              uvm_put_imp                      -     @790 
#       ahbSlaveAnalysisFifo[1]   uvm_tlm_analysis_fifo #(T)       -     @830 
#         analysis_export         uvm_analysis_imp                 -     @869 
#         get_ap                  uvm_analysis_port                -     @861 
#         get_peek_export         uvm_get_peek_imp                 -     @845 
#         put_ap                  uvm_analysis_port                -     @853 
#         put_export              uvm_put_imp                      -     @837 
#     ahbSlaveAgent[0]            AhbSlaveAgent                    -     @559 
#       ahbSlaveCoverage          AhbSlaveCoverage                 -     @1362
#         analysis_imp            uvm_analysis_imp                 -     @1369
#       ahbSlaveDriverProxy       AhbSlaveDriverProxy              -     @1324
#         rsp_port                uvm_analysis_port                -     @1339
#         seq_item_port           uvm_seq_item_pull_port           -     @1331
#       ahbSlaveMonitorProxy      AhbSlaveMonitorProxy             -     @1347
#         ahbSlaveAnalysisPort    uvm_analysis_port                -     @1354
#       ahbSlaveSequencer         AhbSlaveSequencer                -     @1215
#         rsp_export              uvm_analysis_export              -     @1222
#         seq_item_export         uvm_seq_item_pull_imp            -     @1316
#         arbitration_queue       array                            0     -    
#         lock_queue              array                            0     -    
#         num_last_reqs           integral                         32    'd1  
#         num_last_rsps           integral                         32    'd1  
#     ahbSlaveAgent[1]            AhbSlaveAgent                    -     @566 
#       ahbSlaveCoverage          AhbSlaveCoverage                 -     @1530
#         analysis_imp            uvm_analysis_imp                 -     @1537
#       ahbSlaveDriverProxy       AhbSlaveDriverProxy              -     @1492
#         rsp_port                uvm_analysis_port                -     @1507
#         seq_item_port           uvm_seq_item_pull_port           -     @1499
#       ahbSlaveMonitorProxy      AhbSlaveMonitorProxy             -     @1515
#         ahbSlaveAnalysisPort    uvm_analysis_port                -     @1522
#       ahbSlaveSequencer         AhbSlaveSequencer                -     @1383
#         rsp_export              uvm_analysis_export              -     @1390
#         seq_item_export         uvm_seq_item_pull_imp            -     @1484
#         arbitration_queue       array                            0     -    
#         lock_queue              array                            0     -    
#         num_last_reqs           integral                         32    'd1  
#         num_last_rsps           integral                         32    'd1  
#     ahbVirtualSequencer         AhbVirtualSequencer              -     @573 
#       rsp_export                uvm_analysis_export              -     @580 
#       seq_item_export           uvm_seq_item_pull_imp            -     @674 
#       arbitration_queue         array                            0     -    
#       lock_queue                array                            0     -    
#       num_last_reqs             integral                         32    'd1  
#       num_last_rsps             integral                         32    'd1  
# ----------------------------------------------------------------------------
# 
# UVM_INFO verilog_src/questa_uvm_pkg-1.2/src/questa_uvm_pkg.sv(277) @ 0: reporter [Questa UVM] End Of Elaboration
# UVM_INFO ../../src/hvlTop/tb/test/AhbWrap4WriteFollowedByReadTest.sv(28) @ 0: uvm_test_top [AhbWrap4WriteFollowedByReadTest] AhbWrap4WriteFollowedByReadTest
# CONNVERTER NO OF WAIT STATES IS 0
# UVM_INFO ../../src/hvlTop/slaveAgent/AhbSlaveDriverProxy.sv(42) @ 0: uvm_test_top.swasthik.ahbSlaveAgent[1].ahbSlaveDriverProxy [AhbSlaveDriverProxy]  BEFORERESET 
#  
# CONNVERTER NO OF WAIT STATES IS 0
# UVM_INFO ../../src/hvlTop/slaveAgent/AhbSlaveDriverProxy.sv(42) @ 0: uvm_test_top.swasthik.ahbSlaveAgent[0].ahbSlaveDriverProxy [AhbSlaveDriverProxy]  BEFORERESET 
#  
# UVM_INFO ../../src/hvlTop/masterAgent/AhbMasterMonitorProxy.sv(42) @ 0: uvm_test_top.swasthik.ahbMasterAgent[1].ahbMasterMonitorProxy [AhbMasterMonitorProxy] Inside the master_monitor_proxy
# RESET CALLED
# UVM_INFO ../../src/hvlTop/masterAgent/AhbMasterMonitorProxy.sv(42) @ 0: uvm_test_top.swasthik.ahbMasterAgent[0].ahbMasterMonitorProxy [AhbMasterMonitorProxy] Inside the master_monitor_proxy
# RESET CALLED
# UVM_INFO ../../src/hdlTop/slaveAgentBFM/AhbSlaveDriverBFM.sv(52) @ 5: reporter [AHB_SLAVE_DRIVER_BFM] SYSTEM RESET DETECTED
# UVM_INFO ../../src/hdlTop/slaveAgentBFM/AhbSlaveDriverBFM.sv(52) @ 5: reporter [AHB_SLAVE_DRIVER_BFM] SYSTEM RESET DETECTED
# UVM_INFO ../../src/hdlTop/masterAgentBFM/AhbMasterDriverBFM.sv(46) @ 5: reporter [AHB_MASTER_DRIVER_BFM] SYSTEM RESET DETECTED
# UVM_INFO ../../src/hdlTop/masterAgentBFM/AhbMasterMonitorBFM.sv(48) @ 5: reporter [AHB_MASTER_MONITOR_BFM] system reset detected
# UVM_INFO ../../src/hdlTop/masterAgentBFM/AhbMasterDriverBFM.sv(46) @ 5: reporter [AHB_MASTER_DRIVER_BFM] SYSTEM RESET DETECTED
# UVM_INFO ../../src/hdlTop/masterAgentBFM/AhbMasterMonitorBFM.sv(48) @ 5: reporter [AHB_MASTER_MONITOR_BFM] system reset detected
# [5] master_request[1][0] = x , master_hmastlock[0] == x
# [5] master_request[1][1] = x , master_hmastlock[1] == x
# [5] master_request[0][0] = x , master_hmastlock[0] == x
# [5] master_request[0][1] = x , master_hmastlock[1] == x
# [5] master_request[1][0] = x , master_hmastlock[0] == x
# [5] master_request[1][1] = x , master_hmastlock[1] == x
# [5] master_request[0][0] = x , master_hmastlock[0] == x
# [5] master_request[0][1] = x , master_hmastlock[1] == x
# @                  15 H EY MAN
# UVM_INFO ../../src/hdlTop/masterAgentBFM/AhbMasterMonitorBFM.sv(50) @ 15: reporter [AHB_MASTER_MONITOR_BFM] system reset deactivated
# UVM_INFO ../../src/hdlTop/masterAgentBFM/AhbMasterMonitorBFM.sv(50) @ 15: reporter [AHB_MASTER_MONITOR_BFM] system reset deactivated
# ** Warning: (vsim-8233) ../../src/hvlTop/masterAgent/AhbMasterSequenceItemConverter.sv(167): Index 16 into empty array is out of bounds.
#    Time: 15 ns  Iteration: 3  Region: /uvm_pkg::uvm_task_phase::execute
# ** Warning: (vsim-8233) ../../src/hvlTop/masterAgent/AhbMasterSequenceItemConverter.sv(167): Index 15 into empty array is out of bounds.
#    Time: 15 ns  Iteration: 3  Region: /uvm_pkg::uvm_task_phase::execute
# ** Warning: (vsim-8233) ../../src/hvlTop/masterAgent/AhbMasterSequenceItemConverter.sv(167): Index 14 into empty array is out of bounds.
#    Time: 15 ns  Iteration: 3  Region: /uvm_pkg::uvm_task_phase::execute
# ** Warning: (vsim-8233) ../../src/hvlTop/masterAgent/AhbMasterSequenceItemConverter.sv(167): Index 13 into empty array is out of bounds.
#    Time: 15 ns  Iteration: 3  Region: /uvm_pkg::uvm_task_phase::execute
# ** Warning: (vsim-8233) ../../src/hvlTop/masterAgent/AhbMasterSequenceItemConverter.sv(167): Index 12 into empty array is out of bounds.
#    Time: 15 ns  Iteration: 3  Region: /uvm_pkg::uvm_task_phase::execute
# ** Warning: (vsim-8233) ../../src/hvlTop/masterAgent/AhbMasterSequenceItemConverter.sv(167): Index 11 into empty array is out of bounds.
#    Time: 15 ns  Iteration: 3  Region: /uvm_pkg::uvm_task_phase::execute
# ** Warning: (vsim-8233) ../../src/hvlTop/masterAgent/AhbMasterSequenceItemConverter.sv(167): Index 10 into empty array is out of bounds.
#    Time: 15 ns  Iteration: 3  Region: /uvm_pkg::uvm_task_phase::execute
# ** Warning: (vsim-8233) ../../src/hvlTop/masterAgent/AhbMasterSequenceItemConverter.sv(167): Index 9 into empty array is out of bounds.
#    Time: 15 ns  Iteration: 3  Region: /uvm_pkg::uvm_task_phase::execute
# ** Warning: (vsim-8233) ../../src/hvlTop/masterAgent/AhbMasterSequenceItemConverter.sv(167): Index 8 into empty array is out of bounds.
#    Time: 15 ns  Iteration: 3  Region: /uvm_pkg::uvm_task_phase::execute
# ** Warning: (vsim-8233) ../../src/hvlTop/masterAgent/AhbMasterSequenceItemConverter.sv(167): Index 7 into empty array is out of bounds.
#    Time: 15 ns  Iteration: 3  Region: /uvm_pkg::uvm_task_phase::execute
# ** Warning: (vsim-8233) ../../src/hvlTop/masterAgent/AhbMasterSequenceItemConverter.sv(167): Index 6 into empty array is out of bounds.
#    Time: 15 ns  Iteration: 3  Region: /uvm_pkg::uvm_task_phase::execute
# ** Warning: (vsim-8233) ../../src/hvlTop/masterAgent/AhbMasterSequenceItemConverter.sv(167): Index 5 into empty array is out of bounds.
#    Time: 15 ns  Iteration: 3  Region: /uvm_pkg::uvm_task_phase::execute
# ** Warning: (vsim-8233) ../../src/hvlTop/masterAgent/AhbMasterSequenceItemConverter.sv(167): Index 4 into empty array is out of bounds.
#    Time: 15 ns  Iteration: 3  Region: /uvm_pkg::uvm_task_phase::execute
# ** Warning: (vsim-8233) ../../src/hvlTop/masterAgent/AhbMasterSequenceItemConverter.sv(167): Index 3 into empty array is out of bounds.
#    Time: 15 ns  Iteration: 3  Region: /uvm_pkg::uvm_task_phase::execute
# ** Warning: (vsim-8233) ../../src/hvlTop/masterAgent/AhbMasterSequenceItemConverter.sv(167): Index 2 into empty array is out of bounds.
#    Time: 15 ns  Iteration: 3  Region: /uvm_pkg::uvm_task_phase::execute
# ** Warning: (vsim-8233) ../../src/hvlTop/masterAgent/AhbMasterSequenceItemConverter.sv(167): Index 1 into empty array is out of bounds.
#    Time: 15 ns  Iteration: 3  Region: /uvm_pkg::uvm_task_phase::execute
# UVM_INFO ../../src/hvlTop/masterAgent/AhbMasterMonitorProxy.sv(57) @ 15: uvm_test_top.swasthik.ahbMasterAgent[1].ahbMasterMonitorProxy [AhbMasterMonitorProxy] Sending packet via analysis_port: , 
#  ------------------------------------------------------------------------
# Name                      Type                  Size  Value             
# ------------------------------------------------------------------------
# ahbMasterPacket           AhbMasterTransaction  -     @1759             
#   haddr                   integral              32    'h0               
#   hselx                   integral              2     'b0               
#   hburst                  string                6     SINGLE            
#   hmastlock               integral              1     'h0               
#   hprot                   string                18    NORMAL_SECURE_DATA
#   hsize                   string                4     BYTE              
#   hnonsec                 integral              1     'h0               
#   hexcl                   integral              1     'h0               
#   hmaster                 integral              1     'd0               
#   htrans                  string                4     IDLE              
#   hwrite                  string                4     READ              
#   hreadyout               integral              1     'h0               
#   hresp                   string                4     OKAY              
#   hexokay                 integral              1     'h0               
#   hready                  integral              1     'h0               
#   noOfwaitStatesDetected  integral              32    'h0               
#   hrdata[0]               integral              32    'h0               
# ------------------------------------------------------------------------
# 
# UVM_INFO ../../src/hvlTop/masterAgent/AhbMasterCoverage.sv(107) @ 15: uvm_test_top.swasthik.ahbMasterAgent[1].ahbMasterCoverage [AhbMasterCoverage] Before calling SAMPLE METHOD
# UVM_INFO ../../src/hvlTop/masterAgent/AhbMasterCoverage.sv(109) @ 15: uvm_test_top.swasthik.ahbMasterAgent[1].ahbMasterCoverage [AhbMasterCoverage] After calling SAMPLE METHOD
# UVM_INFO ../../src/hdlTop/masterAgentBFM/AhbMasterDriverBFM.sv(50) @ 15: reporter [AHB_MASTER_DRIVER_BFM]  @15 SYSTEM RESET DEACTIVATED
# ** Warning: (vsim-8233) ../../src/hvlTop/masterAgent/AhbMasterSequenceItemConverter.sv(167): Index 16 into empty array is out of bounds.
#    Time: 15 ns  Iteration: 3  Region: /uvm_pkg::uvm_task_phase::execute
# ** Warning: (vsim-8233) ../../src/hvlTop/masterAgent/AhbMasterSequenceItemConverter.sv(167): Index 15 into empty array is out of bounds.
#    Time: 15 ns  Iteration: 3  Region: /uvm_pkg::uvm_task_phase::execute
# ** Warning: (vsim-8233) ../../src/hvlTop/masterAgent/AhbMasterSequenceItemConverter.sv(167): Index 14 into empty array is out of bounds.
#    Time: 15 ns  Iteration: 3  Region: /uvm_pkg::uvm_task_phase::execute
# ** Warning: (vsim-8233) ../../src/hvlTop/masterAgent/AhbMasterSequenceItemConverter.sv(167): Index 13 into empty array is out of bounds.
#    Time: 15 ns  Iteration: 3  Region: /uvm_pkg::uvm_task_phase::execute
# ** Warning: (vsim-8233) ../../src/hvlTop/masterAgent/AhbMasterSequenceItemConverter.sv(167): Index 12 into empty array is out of bounds.
#    Time: 15 ns  Iteration: 3  Region: /uvm_pkg::uvm_task_phase::execute
# ** Warning: (vsim-8233) ../../src/hvlTop/masterAgent/AhbMasterSequenceItemConverter.sv(167): Index 11 into empty array is out of bounds.
#    Time: 15 ns  Iteration: 3  Region: /uvm_pkg::uvm_task_phase::execute
# ** Warning: (vsim-8233) ../../src/hvlTop/masterAgent/AhbMasterSequenceItemConverter.sv(167): Index 10 into empty array is out of bounds.
#    Time: 15 ns  Iteration: 3  Region: /uvm_pkg::uvm_task_phase::execute
# ** Warning: (vsim-8233) ../../src/hvlTop/masterAgent/AhbMasterSequenceItemConverter.sv(167): Index 9 into empty array is out of bounds.
#    Time: 15 ns  Iteration: 3  Region: /uvm_pkg::uvm_task_phase::execute
# ** Warning: (vsim-8233) ../../src/hvlTop/masterAgent/AhbMasterSequenceItemConverter.sv(167): Index 8 into empty array is out of bounds.
#    Time: 15 ns  Iteration: 3  Region: /uvm_pkg::uvm_task_phase::execute
# ** Warning: (vsim-8233) ../../src/hvlTop/masterAgent/AhbMasterSequenceItemConverter.sv(167): Index 7 into empty array is out of bounds.
#    Time: 15 ns  Iteration: 3  Region: /uvm_pkg::uvm_task_phase::execute
# ** Warning: (vsim-8233) ../../src/hvlTop/masterAgent/AhbMasterSequenceItemConverter.sv(167): Index 6 into empty array is out of bounds.
#    Time: 15 ns  Iteration: 3  Region: /uvm_pkg::uvm_task_phase::execute
# ** Warning: (vsim-8233) ../../src/hvlTop/masterAgent/AhbMasterSequenceItemConverter.sv(167): Index 5 into empty array is out of bounds.
#    Time: 15 ns  Iteration: 3  Region: /uvm_pkg::uvm_task_phase::execute
# ** Warning: (vsim-8233) ../../src/hvlTop/masterAgent/AhbMasterSequenceItemConverter.sv(167): Index 4 into empty array is out of bounds.
#    Time: 15 ns  Iteration: 3  Region: /uvm_pkg::uvm_task_phase::execute
# ** Warning: (vsim-8233) ../../src/hvlTop/masterAgent/AhbMasterSequenceItemConverter.sv(167): Index 3 into empty array is out of bounds.
#    Time: 15 ns  Iteration: 3  Region: /uvm_pkg::uvm_task_phase::execute
# ** Warning: (vsim-8233) ../../src/hvlTop/masterAgent/AhbMasterSequenceItemConverter.sv(167): Index 2 into empty array is out of bounds.
#    Time: 15 ns  Iteration: 3  Region: /uvm_pkg::uvm_task_phase::execute
# ** Warning: (vsim-8233) ../../src/hvlTop/masterAgent/AhbMasterSequenceItemConverter.sv(167): Index 1 into empty array is out of bounds.
#    Time: 15 ns  Iteration: 3  Region: /uvm_pkg::uvm_task_phase::execute
# UVM_INFO ../../src/hvlTop/masterAgent/AhbMasterMonitorProxy.sv(57) @ 15: uvm_test_top.swasthik.ahbMasterAgent[0].ahbMasterMonitorProxy [AhbMasterMonitorProxy] Sending packet via analysis_port: , 
#  ------------------------------------------------------------------------
# Name                      Type                  Size  Value             
# ------------------------------------------------------------------------
# ahbMasterPacket           AhbMasterTransaction  -     @1763             
#   haddr                   integral              32    'h0               
#   hselx                   integral              2     'b0               
#   hburst                  string                6     SINGLE            
#   hmastlock               integral              1     'h0               
#   hprot                   string                18    NORMAL_SECURE_DATA
#   hsize                   string                4     BYTE              
#   hnonsec                 integral              1     'h0               
#   hexcl                   integral              1     'h0               
#   hmaster                 integral              1     'd0               
#   htrans                  string                4     IDLE              
#   hwrite                  string                4     READ              
#   hreadyout               integral              1     'h0               
#   hresp                   string                4     OKAY              
#   hexokay                 integral              1     'h0               
#   hready                  integral              1     'h0               
#   noOfwaitStatesDetected  integral              32    'h0               
#   hrdata[0]               integral              32    'h0               
# ------------------------------------------------------------------------
# 
# UVM_INFO ../../src/hvlTop/masterAgent/AhbMasterCoverage.sv(107) @ 15: uvm_test_top.swasthik.ahbMasterAgent[0].ahbMasterCoverage [AhbMasterCoverage] Before calling SAMPLE METHOD
# UVM_INFO ../../src/hvlTop/masterAgent/AhbMasterCoverage.sv(109) @ 15: uvm_test_top.swasthik.ahbMasterAgent[0].ahbMasterCoverage [AhbMasterCoverage] After calling SAMPLE METHOD
# UVM_INFO ../../src/hdlTop/masterAgentBFM/AhbMasterDriverBFM.sv(50) @ 15: reporter [AHB_MASTER_DRIVER_BFM]  @15 SYSTEM RESET DEACTIVATED
# UVM_INFO ../../src/hdlTop/slaveAgentBFM/AhbSlaveDriverBFM.sv(56) @ 15: reporter [AHB_SLAVE_DRIVER_BFM] SYSTEM RESET DEACTIVATED
# UVM_INFO ../../src/hdlTop/slaveAgentBFM/AhbSlaveDriverBFM.sv(56) @ 15: reporter [AHB_SLAVE_DRIVER_BFM] SYSTEM RESET DEACTIVATED
# ------------------------------------------------------------------------
# Name                      Type                  Size  Value             
# ------------------------------------------------------------------------
# ahbMasterPacket           AhbMasterTransaction  -     @1759             
#   haddr                   integral              32    'h0               
#   hselx                   integral              2     'b0               
#   hburst                  string                6     SINGLE            
#   hmastlock               integral              1     'h0               
#   hprot                   string                18    NORMAL_SECURE_DATA
#   hsize                   string                4     BYTE              
#   hnonsec                 integral              1     'h0               
#   hexcl                   integral              1     'h0               
#   hmaster                 integral              1     'd0               
#   htrans                  string                4     IDLE              
#   hwrite                  string                4     READ              
#   hreadyout               integral              1     'h0               
#   hresp                   string                4     OKAY              
#   hexokay                 integral              1     'h0               
#   hready                  integral              1     'h0               
#   noOfwaitStatesDetected  integral              32    'h0               
#   hrdata[0]               integral              32    'h0               
# ------------------------------------------------------------------------
# ------------------------------------------------------------------------
# Name                      Type                  Size  Value             
# ------------------------------------------------------------------------
# ahbMasterPacket           AhbMasterTransaction  -     @1763             
#   haddr                   integral              32    'h0               
#   hselx                   integral              2     'b0               
#   hburst                  string                6     SINGLE            
#   hmastlock               integral              1     'h0               
#   hprot                   string                18    NORMAL_SECURE_DATA
#   hsize                   string                4     BYTE              
#   hnonsec                 integral              1     'h0               
#   hexcl                   integral              1     'h0               
#   hmaster                 integral              1     'd0               
#   htrans                  string                4     IDLE              
#   hwrite                  string                4     READ              
#   hreadyout               integral              1     'h0               
#   hresp                   string                4     OKAY              
#   hexokay                 integral              1     'h0               
#   hready                  integral              1     'h0               
#   noOfwaitStatesDetected  integral              32    'h0               
#   hrdata[0]               integral              32    'h0               
# ------------------------------------------------------------------------
# ---------------------------------------------------------
# Name                Type                 Size  Value     
# ---------------------------------------------------------
# req                 AhbSlaveTransaction  -     @1627     
#   haddr             integral             32    'h0       
#   hselx             integral             2     'b0       
#   hburst            string               0     ""        
#   hmastlock         integral             1     'h0       
#   hprot             string               0     ""        
#   hsize             string               0     ""        
#   hnonsec           integral             1     'h0       
#   hexcl             integral             1     'h0       
#   hmaster           integral             1     'd0       
#   htrans            string               0     ""        
#   hwrite            string               4     READ      
#   hreadyout         integral             1     'h0       
#   hresp             string               0     ""        
#   hexokay           integral             1     'h0       
#   hready            integral             1     'h0       
#   choosePacketData  integral             1     'd0       
#   hwdata[0]         integral             32    'h690824fb
#   hwdata[1]         integral             32    'hf60de2d6
#   hwdata[2]         integral             32    'h7580597f
#   hwdata[3]         integral             32    'h3d57916b
#   hwdata[4]         integral             32    'ha60bf7df
#   hwdata[5]         integral             32    'hb432abb6
#   hwdata[6]         integral             32    'h5668a447
#   hwdata[7]         integral             32    'h58ae7724
#   hwdata[8]         integral             32    'hbcd4ea8d
#   hwdata[9]         integral             32    'h7de92699
#   hwdata[10]        integral             32    'hce0df90c
#   hwdata[11]        integral             32    'h76af66f5
#   hwdata[12]        integral             32    'h5eba08c7
#   hwdata[13]        integral             32    'hb50127a7
#   hwdata[14]        integral             32    'h133c8d95
#   hwdata[15]        integral             32    'hcee9f294
#   hwstrb[0]         integral             4     'b110     
#   hwstrb[1]         integral             4     'b1000    
#   hwstrb[2]         integral             4     'b1000    
#   hwstrb[3]         integral             4     'b111     
#   hwstrb[4]         integral             4     'b1001    
#   hwstrb[5]         integral             4     'b1010    
#   hwstrb[6]         integral             4     'b11      
#   hwstrb[7]         integral             4     'b1000    
#   hwstrb[8]         integral             4     'b1100    
#   hwstrb[9]         integral             4     'b0       
#   hwstrb[10]        integral             4     'b1011    
#   hwstrb[11]        integral             4     'b1       
#   hwstrb[12]        integral             4     'b11      
#   hwstrb[13]        integral             4     'b10      
#   hwstrb[14]        integral             4     'b100     
#   hwstrb[15]        integral             4     'b1110    
#   hrdata[0]         integral             32    'h556885c7
#   hrdata[1]         integral             32    'hdab675b5
#   hrdata[2]         integral             32    'h50886048
#   hrdata[3]         integral             32    'h10b75d26
#   hrdata[4]         integral             32    'hff68a190
#   hrdata[5]         integral             32    'h6b652d7d
#   hrdata[6]         integral             32    'h6f657a58
#   hrdata[7]         integral             32    'h73521014
#   hrdata[8]         integral             32    'h4c7d3da3
#   hrdata[9]         integral             32    'h5cebc4ad
#   hrdata[10]        integral             32    'h1d26f6ed
#   hrdata[11]        integral             32    'h27fd2b2a
#   hrdata[12]        integral             32    'h3ddb3c0c
#   hrdata[13]        integral             32    'h5c37ec0e
#   hrdata[14]        integral             32    'h7dbe6f8d
#   hrdata[15]        integral             32    'h4739f73d
# ---------------------------------------------------------
# ---------------------------------------------------------
# Name                Type                 Size  Value     
# ---------------------------------------------------------
# req                 AhbSlaveTransaction  -     @1623     
#   haddr             integral             32    'h0       
#   hselx             integral             2     'b0       
#   hburst            string               0     ""        
#   hmastlock         integral             1     'h0       
#   hprot             string               0     ""        
#   hsize             string               0     ""        
#   hnonsec           integral             1     'h0       
#   hexcl             integral             1     'h0       
#   hmaster           integral             1     'd0       
#   htrans            string               0     ""        
#   hwrite            string               4     READ      
#   hreadyout         integral             1     'h0       
#   hresp             string               0     ""        
#   hexokay           integral             1     'h0       
#   hready            integral             1     'h0       
#   choosePacketData  integral             1     'd0       
#   hwdata[0]         integral             32    'h2f1ec2cb
#   hwdata[1]         integral             32    'h5061d3da
#   hwdata[2]         integral             32    'hdd08d09e
#   hwdata[3]         integral             32    'h4c6241c9
#   hwdata[4]         integral             32    'h3645b4e9
#   hwdata[5]         integral             32    'h125c44f3
#   hwdata[6]         integral             32    'habcf40e8
#   hwdata[7]         integral             32    'hc7094ebd
#   hwdata[8]         integral             32    'he5b27de2
#   hwdata[9]         integral             32    'he22b3611
#   hwdata[10]        integral             32    'h8432bac 
#   hwdata[11]        integral             32    'hd391762b
#   hwdata[12]        integral             32    'h31d7c328
#   hwdata[13]        integral             32    'he77c467b
#   hwdata[14]        integral             32    'ha7324ed 
#   hwdata[15]        integral             32    'h64dde3b4
#   hwstrb[0]         integral             4     'b1010    
#   hwstrb[1]         integral             4     'b1111    
#   hwstrb[2]         integral             4     'b0       
#   hwstrb[3]         integral             4     'b1011    
#   hwstrb[4]         integral             4     'b1011    
#   hwstrb[5]         integral             4     'b1110    
#   hwstrb[6]         integral             4     'b0       
#   hwstrb[7]         integral             4     'b1100    
#   hwstrb[8]         integral             4     'b11      
#   hwstrb[9]         integral             4     'b1100    
#   hwstrb[10]        integral             4     'b1011    
#   hwstrb[11]        integral             4     'b101     
#   hwstrb[12]        integral             4     'b101     
#   hwstrb[13]        integral             4     'b101     
#   hwstrb[14]        integral             4     'b1011    
#   hwstrb[15]        integral             4     'b1111    
#   hrdata[0]         integral             32    'h69b38303
#   hrdata[1]         integral             32    'hecc7ccf1
#   hrdata[2]         integral             32    'h845482e9
#   hrdata[3]         integral             32    'hd4864394
#   hrdata[4]         integral             32    'h63a2ed74
#   hrdata[5]         integral             32    'h31aa3d17
#   hrdata[6]         integral             32    'h8ad77cab
#   hrdata[7]         integral             32    'he180cad8
#   hrdata[8]         integral             32    'hf6314e3b
#   hrdata[9]         integral             32    'h292cbb80
#   hrdata[10]        integral             32    'hd9972470
#   hrdata[11]        integral             32    'hb50c21bf
#   hrdata[12]        integral             32    'h5378fc01
#   hrdata[13]        integral             32    'h740017e6
#   hrdata[14]        integral             32    'h70d277a0
#   hrdata[15]        integral             32    'hf746b872
# ---------------------------------------------------------
# UVM_INFO ../../src/hvlTop/masterAgent/masterSequences/AhbMasterSequence.sv(129) @ 15: uvm_test_top.swasthik.ahbMasterAgent[0].ahbMasterSequencer@@ahbMasterWriteSequence[0] [AHB] req is of type: AhbMasterTransaction
# *****************************************master sequence***********************************
# -------------------------------------------------------------------------------
# Name                      Type                  Size  Value                    
# -------------------------------------------------------------------------------
# req                       AhbMasterTransaction  -     @1635                    
#   haddr                   integral              32    'hd4                     
#   hselx                   integral              2     'b10                     
#   hburst                  string                5     WRAP4                    
#   hmastlock               integral              1     'h0                      
#   hprot                   string                25    NORMAL_SECURE_INSTRUCTION
#   hsize                   string                4     WORD                     
#   hnonsec                 integral              1     'h1                      
#   hexcl                   integral              1     'h0                      
#   hmaster                 integral              1     1                        
#   htrans                  string                3     SEQ                      
#   hwrite                  string                5     WRITE                    
#   hreadyout               integral              1     'h0                      
#   hresp                   string                0     ""                       
#   hexokay                 integral              1     'h0                      
#   hready                  integral              1     'h0                      
#   noOfwaitStatesDetected  integral              32    'h0                      
#   hwdata[0]               integral              32    'hc4fddc9b               
#   hwdata[1]               integral              32    'h6b9d8086               
#   hwdata[2]               integral              32    'h255b7963               
#   hwdata[3]               integral              32    'h4151769                
#   hwstrb[0]               integral              4     'b1111                   
#   hwstrb[1]               integral              4     'b1111                   
#   hwstrb[2]               integral              4     'b1111                   
#   hwstrb[3]               integral              4     'b1111                   
#   busyControl[0]          integral              1     'h0                      
#   busyControl[1]          integral              1     'h0                      
#   busyControl[2]          integral              1     'h0                      
#   busyControl[3]          integral              1     'h0                      
# -------------------------------------------------------------------------------
# ********************************************************************************************
# UVM_INFO ../../src/hvlTop/masterAgent/masterSequences/AhbMasterSequence.sv(129) @ 15: uvm_test_top.swasthik.ahbMasterAgent[1].ahbMasterSequencer@@ahbMasterWriteSequence[1] [AHB] req is of type: AhbMasterTransaction
# *****************************************master sequence***********************************
# -------------------------------------------------------------------------------
# Name                      Type                  Size  Value                    
# -------------------------------------------------------------------------------
# req                       AhbMasterTransaction  -     @1631                    
#   haddr                   integral              32    'h328                    
#   hselx                   integral              2     'b1                      
#   hburst                  string                5     WRAP4                    
#   hmastlock               integral              1     'h0                      
#   hprot                   string                25    PRIVILEGED_NONSECURE_DATA
#   hsize                   string                4     WORD                     
#   hnonsec                 integral              1     'h0                      
#   hexcl                   integral              1     'h0                      
#   hmaster                 integral              1     'd0                      
#   htrans                  string                3     SEQ                      
#   hwrite                  string                5     WRITE                    
#   hreadyout               integral              1     'h0                      
#   hresp                   string                0     ""                       
#   hexokay                 integral              1     'h0                      
#   hready                  integral              1     'h0                      
#   noOfwaitStatesDetected  integral              32    'h0                      
#   hwdata[0]               integral              32    'hb1e7ecc6               
#   hwdata[1]               integral              32    'h7e5d6be7               
#   hwdata[2]               integral              32    'hb75c28fe               
#   hwdata[3]               integral              32    'h6c9f2d1c               
#   hwstrb[0]               integral              4     'b1111                   
#   hwstrb[1]               integral              4     'b1111                   
#   hwstrb[2]               integral              4     'b1111                   
#   hwstrb[3]               integral              4     'b1111                   
#   busyControl[0]          integral              1     'h0                      
#   busyControl[1]          integral              1     'h0                      
#   busyControl[2]          integral              1     'h0                      
#   busyControl[3]          integral              1     'h0                      
# -------------------------------------------------------------------------------
# ********************************************************************************************
# UVM_INFO ../../src/hvlTop/slaveAgent/AhbSlaveSequenceItemConverter.sv(90) @ 15: reporter [ahbSlaveSequeceItemconverterClass] -------------------------------------------------------------
# THE RUN PHASE IS 0
# CONNVERTER NO OF WAIT STATES IS 0
# UVM_INFO ../../src/hvlTop/slaveAgent/AhbSlaveSequenceItemConverter.sv(90) @ 15: reporter [ahbSlaveSequeceItemconverterClass] -------------------------------------------------------------
# THE RUN PHASE IS 0
# CONNVERTER NO OF WAIT STATES IS 0
# UVM_INFO ../../src/hvlTop/masterAgent/AhbMasterDriverProxy.sv(48) @ 15: uvm_test_top.swasthik.ahbMasterAgent[0].ahbMasterDriverProxy [AhbMasterDriverProxy] REQ-MASTERTX 
#  -------------------------------------------------------------------------------
# Name                      Type                  Size  Value                    
# -------------------------------------------------------------------------------
# req                       AhbMasterTransaction  -     @1635                    
#   haddr                   integral              32    'hd4                     
#   hselx                   integral              2     'b10                     
#   hburst                  string                5     WRAP4                    
#   hmastlock               integral              1     'h0                      
#   hprot                   string                25    NORMAL_SECURE_INSTRUCTION
#   hsize                   string                4     WORD                     
#   hnonsec                 integral              1     'h1                      
#   hexcl                   integral              1     'h0                      
#   hmaster                 integral              1     1                        
#   htrans                  string                3     SEQ                      
#   hwrite                  string                5     WRITE                    
#   hreadyout               integral              1     'h0                      
#   hresp                   string                0     ""                       
#   hexokay                 integral              1     'h0                      
#   hready                  integral              1     'h0                      
#   noOfwaitStatesDetected  integral              32    'h0                      
#   hwdata[0]               integral              32    'hc4fddc9b               
#   hwdata[1]               integral              32    'h6b9d8086               
#   hwdata[2]               integral              32    'h255b7963               
#   hwdata[3]               integral              32    'h4151769                
#   hwstrb[0]               integral              4     'b1111                   
#   hwstrb[1]               integral              4     'b1111                   
#   hwstrb[2]               integral              4     'b1111                   
#   hwstrb[3]               integral              4     'b1111                   
#   busyControl[0]          integral              1     'h0                      
#   busyControl[1]          integral              1     'h0                      
#   busyControl[2]          integral              1     'h0                      
#   busyControl[3]          integral              1     'h0                      
# -------------------------------------------------------------------------------
# 
# ***************************IN DRIVER************************************************************************
# -------------------------------------------------------------------------------
# Name                      Type                  Size  Value                    
# -------------------------------------------------------------------------------
# req                       AhbMasterTransaction  -     @1635                    
#   haddr                   integral              32    'hd4                     
#   hselx                   integral              2     'b10                     
#   hburst                  string                5     WRAP4                    
#   hmastlock               integral              1     'h0                      
#   hprot                   string                25    NORMAL_SECURE_INSTRUCTION
#   hsize                   string                4     WORD                     
#   hnonsec                 integral              1     'h1                      
#   hexcl                   integral              1     'h0                      
#   hmaster                 integral              1     1                        
#   htrans                  string                3     SEQ                      
#   hwrite                  string                5     WRITE                    
#   hreadyout               integral              1     'h0                      
#   hresp                   string                0     ""                       
#   hexokay                 integral              1     'h0                      
#   hready                  integral              1     'h0                      
#   noOfwaitStatesDetected  integral              32    'h0                      
#   hwdata[0]               integral              32    'hc4fddc9b               
#   hwdata[1]               integral              32    'h6b9d8086               
#   hwdata[2]               integral              32    'h255b7963               
#   hwdata[3]               integral              32    'h4151769                
#   hwstrb[0]               integral              4     'b1111                   
#   hwstrb[1]               integral              4     'b1111                   
#   hwstrb[2]               integral              4     'b1111                   
#   hwstrb[3]               integral              4     'b1111                   
#   busyControl[0]          integral              1     'h0                      
#   busyControl[1]          integral              1     'h0                      
#   busyControl[2]          integral              1     'h0                      
#   busyControl[3]          integral              1     'h0                      
# -------------------------------------------------------------------------------
# ***************************************************************************************************
# UVM_INFO ../../src/hvlTop/masterAgent/AhbMasterDriverProxy.sv(48) @ 15: uvm_test_top.swasthik.ahbMasterAgent[1].ahbMasterDriverProxy [AhbMasterDriverProxy] REQ-MASTERTX 
#  -------------------------------------------------------------------------------
# Name                      Type                  Size  Value                    
# -------------------------------------------------------------------------------
# req                       AhbMasterTransaction  -     @1631                    
#   haddr                   integral              32    'h328                    
#   hselx                   integral              2     'b1                      
#   hburst                  string                5     WRAP4                    
#   hmastlock               integral              1     'h0                      
#   hprot                   string                25    PRIVILEGED_NONSECURE_DATA
#   hsize                   string                4     WORD                     
#   hnonsec                 integral              1     'h0                      
#   hexcl                   integral              1     'h0                      
#   hmaster                 integral              1     'd0                      
#   htrans                  string                3     SEQ                      
#   hwrite                  string                5     WRITE                    
#   hreadyout               integral              1     'h0                      
#   hresp                   string                0     ""                       
#   hexokay                 integral              1     'h0                      
#   hready                  integral              1     'h0                      
#   noOfwaitStatesDetected  integral              32    'h0                      
#   hwdata[0]               integral              32    'hb1e7ecc6               
#   hwdata[1]               integral              32    'h7e5d6be7               
#   hwdata[2]               integral              32    'hb75c28fe               
#   hwdata[3]               integral              32    'h6c9f2d1c               
#   hwstrb[0]               integral              4     'b1111                   
#   hwstrb[1]               integral              4     'b1111                   
#   hwstrb[2]               integral              4     'b1111                   
#   hwstrb[3]               integral              4     'b1111                   
#   busyControl[0]          integral              1     'h0                      
#   busyControl[1]          integral              1     'h0                      
#   busyControl[2]          integral              1     'h0                      
#   busyControl[3]          integral              1     'h0                      
# -------------------------------------------------------------------------------
# 
# ***************************IN DRIVER************************************************************************
# -------------------------------------------------------------------------------
# Name                      Type                  Size  Value                    
# -------------------------------------------------------------------------------
# req                       AhbMasterTransaction  -     @1631                    
#   haddr                   integral              32    'h328                    
#   hselx                   integral              2     'b1                      
#   hburst                  string                5     WRAP4                    
#   hmastlock               integral              1     'h0                      
#   hprot                   string                25    PRIVILEGED_NONSECURE_DATA
#   hsize                   string                4     WORD                     
#   hnonsec                 integral              1     'h0                      
#   hexcl                   integral              1     'h0                      
#   hmaster                 integral              1     'd0                      
#   htrans                  string                3     SEQ                      
#   hwrite                  string                5     WRITE                    
#   hreadyout               integral              1     'h0                      
#   hresp                   string                0     ""                       
#   hexokay                 integral              1     'h0                      
#   hready                  integral              1     'h0                      
#   noOfwaitStatesDetected  integral              32    'h0                      
#   hwdata[0]               integral              32    'hb1e7ecc6               
#   hwdata[1]               integral              32    'h7e5d6be7               
#   hwdata[2]               integral              32    'hb75c28fe               
#   hwdata[3]               integral              32    'h6c9f2d1c               
#   hwstrb[0]               integral              4     'b1111                   
#   hwstrb[1]               integral              4     'b1111                   
#   hwstrb[2]               integral              4     'b1111                   
#   hwstrb[3]               integral              4     'b1111                   
#   busyControl[0]          integral              1     'h0                      
#   busyControl[1]          integral              1     'h0                      
#   busyControl[2]          integral              1     'h0                      
#   busyControl[3]          integral              1     'h0                      
# -------------------------------------------------------------------------------
# ***************************************************************************************************
# SLAVE SEQUENCE DONE 
# SLAVE SEQUENCE DONE 
# [16] master_request[1][0] = x , master_hmastlock[0] == 0
# [16] master_request[1][1] = x , master_hmastlock[1] == 0
# [16] master_request[0][0] = x , master_hmastlock[0] == 0
# [16] master_request[0][1] = x , master_hmastlock[1] == 0
# [16] master_request[0][0] = 1 , master_hmastlock[0] == 0
# [16] master_request[0][1] = 1 , master_hmastlock[1] == 0
# [25] master_request[0][0] = 1 , master_hmastlock[0] == 0
# [25] master_request[0][1] = 1 , master_hmastlock[1] == 0
# [25] master_request[0][0] = 1 , master_hmastlock[0] == 0
# [25] master_request[0][1] = 1 , master_hmastlock[1] == 0
# DRIVER
# ** Warning: (vsim-8233) ../../src/hvlTop/masterAgent/AhbMasterSequenceItemConverter.sv(167): Index 16 into array dimension [0:0] is out of bounds.
#    Time: 25 ns  Iteration: 11  Region: /uvm_pkg::uvm_task_phase::execute
# ** Warning: (vsim-8233) ../../src/hvlTop/masterAgent/AhbMasterSequenceItemConverter.sv(167): Index 15 into array dimension [0:0] is out of bounds.
#    Time: 25 ns  Iteration: 11  Region: /uvm_pkg::uvm_task_phase::execute
# ** Warning: (vsim-8233) ../../src/hvlTop/masterAgent/AhbMasterSequenceItemConverter.sv(167): Index 14 into array dimension [0:0] is out of bounds.
#    Time: 25 ns  Iteration: 11  Region: /uvm_pkg::uvm_task_phase::execute
# ** Warning: (vsim-8233) ../../src/hvlTop/masterAgent/AhbMasterSequenceItemConverter.sv(167): Index 13 into array dimension [0:0] is out of bounds.
#    Time: 25 ns  Iteration: 11  Region: /uvm_pkg::uvm_task_phase::execute
# ** Warning: (vsim-8233) ../../src/hvlTop/masterAgent/AhbMasterSequenceItemConverter.sv(167): Index 12 into array dimension [0:0] is out of bounds.
#    Time: 25 ns  Iteration: 11  Region: /uvm_pkg::uvm_task_phase::execute
# ** Warning: (vsim-8233) ../../src/hvlTop/masterAgent/AhbMasterSequenceItemConverter.sv(167): Index 11 into array dimension [0:0] is out of bounds.
#    Time: 25 ns  Iteration: 11  Region: /uvm_pkg::uvm_task_phase::execute
# ** Warning: (vsim-8233) ../../src/hvlTop/masterAgent/AhbMasterSequenceItemConverter.sv(167): Index 10 into array dimension [0:0] is out of bounds.
#    Time: 25 ns  Iteration: 11  Region: /uvm_pkg::uvm_task_phase::execute
# ** Warning: (vsim-8233) ../../src/hvlTop/masterAgent/AhbMasterSequenceItemConverter.sv(167): Index 9 into array dimension [0:0] is out of bounds.
#    Time: 25 ns  Iteration: 11  Region: /uvm_pkg::uvm_task_phase::execute
# ** Warning: (vsim-8233) ../../src/hvlTop/masterAgent/AhbMasterSequenceItemConverter.sv(167): Index 8 into array dimension [0:0] is out of bounds.
#    Time: 25 ns  Iteration: 11  Region: /uvm_pkg::uvm_task_phase::execute
# ** Warning: (vsim-8233) ../../src/hvlTop/masterAgent/AhbMasterSequenceItemConverter.sv(167): Index 7 into array dimension [0:0] is out of bounds.
#    Time: 25 ns  Iteration: 11  Region: /uvm_pkg::uvm_task_phase::execute
# ** Warning: (vsim-8233) ../../src/hvlTop/masterAgent/AhbMasterSequenceItemConverter.sv(167): Index 6 into array dimension [0:0] is out of bounds.
#    Time: 25 ns  Iteration: 11  Region: /uvm_pkg::uvm_task_phase::execute
# ** Warning: (vsim-8233) ../../src/hvlTop/masterAgent/AhbMasterSequenceItemConverter.sv(167): Index 5 into array dimension [0:0] is out of bounds.
#    Time: 25 ns  Iteration: 11  Region: /uvm_pkg::uvm_task_phase::execute
# ** Warning: (vsim-8233) ../../src/hvlTop/masterAgent/AhbMasterSequenceItemConverter.sv(167): Index 4 into array dimension [0:0] is out of bounds.
#    Time: 25 ns  Iteration: 11  Region: /uvm_pkg::uvm_task_phase::execute
# ** Warning: (vsim-8233) ../../src/hvlTop/masterAgent/AhbMasterSequenceItemConverter.sv(167): Index 3 into array dimension [0:0] is out of bounds.
#    Time: 25 ns  Iteration: 11  Region: /uvm_pkg::uvm_task_phase::execute
# ** Warning: (vsim-8233) ../../src/hvlTop/masterAgent/AhbMasterSequenceItemConverter.sv(167): Index 2 into array dimension [0:0] is out of bounds.
#    Time: 25 ns  Iteration: 11  Region: /uvm_pkg::uvm_task_phase::execute
# UVM_INFO ../../src/hvlTop/masterAgent/AhbMasterMonitorProxy.sv(57) @ 25: uvm_test_top.swasthik.ahbMasterAgent[0].ahbMasterMonitorProxy [AhbMasterMonitorProxy] Sending packet via analysis_port: , 
#  -----------------------------------------------------------
# Name                      Type                  Size  Value
# -----------------------------------------------------------
# ahbMasterPacket           AhbMasterTransaction  -     @1769
#   haddr                   integral              32    'h0  
#   hselx                   integral              2     'b0  
#   hburst                  string                0     ""   
#   hmastlock               integral              1     'h0  
#   hprot                   string                0     ""   
#   hsize                   string                0     ""   
#   hnonsec                 integral              1     'h0  
#   hexcl                   integral              1     'h0  
#   hmaster                 integral              1     'd0  
#   htrans                  string                4     IDLE 
#   hwrite                  string                4     READ 
#   hreadyout               integral              1     'h0  
#   hresp                   string                4     OKAY 
#   hexokay                 integral              1     'h0  
#   hready                  integral              1     'h0  
#   noOfwaitStatesDetected  integral              32    'h0  
#   hrdata[0]               integral              32    'h0  
#   hrdata[1]               integral              32    'h0  
# -----------------------------------------------------------
# 
# UVM_INFO ../../src/hvlTop/masterAgent/AhbMasterCoverage.sv(107) @ 25: uvm_test_top.swasthik.ahbMasterAgent[0].ahbMasterCoverage [AhbMasterCoverage] Before calling SAMPLE METHOD
# UVM_INFO ../../src/hvlTop/masterAgent/AhbMasterCoverage.sv(109) @ 25: uvm_test_top.swasthik.ahbMasterAgent[0].ahbMasterCoverage [AhbMasterCoverage] After calling SAMPLE METHOD
# HEY I AM INSIDE BURST
# ** Warning: (vsim-8233) ../../src/hvlTop/slaveAgent/AhbSlaveSequenceItemConverter.sv(159): Index 16 into empty array is out of bounds.
#    Time: 25 ns  Iteration: 11  Region: /uvm_pkg::uvm_task_phase::execute
# ** Warning: (vsim-8233) ../../src/hvlTop/slaveAgent/AhbSlaveSequenceItemConverter.sv(159): Index 15 into empty array is out of bounds.
#    Time: 25 ns  Iteration: 11  Region: /uvm_pkg::uvm_task_phase::execute
# ** Warning: (vsim-8233) ../../src/hvlTop/slaveAgent/AhbSlaveSequenceItemConverter.sv(159): Index 14 into empty array is out of bounds.
#    Time: 25 ns  Iteration: 11  Region: /uvm_pkg::uvm_task_phase::execute
# ** Warning: (vsim-8233) ../../src/hvlTop/slaveAgent/AhbSlaveSequenceItemConverter.sv(159): Index 13 into empty array is out of bounds.
#    Time: 25 ns  Iteration: 11  Region: /uvm_pkg::uvm_task_phase::execute
# ** Warning: (vsim-8233) ../../src/hvlTop/slaveAgent/AhbSlaveSequenceItemConverter.sv(159): Index 12 into empty array is out of bounds.
#    Time: 25 ns  Iteration: 11  Region: /uvm_pkg::uvm_task_phase::execute
# ** Warning: (vsim-8233) ../../src/hvlTop/slaveAgent/AhbSlaveSequenceItemConverter.sv(159): Index 11 into empty array is out of bounds.
#    Time: 25 ns  Iteration: 11  Region: /uvm_pkg::uvm_task_phase::execute
# ** Warning: (vsim-8233) ../../src/hvlTop/slaveAgent/AhbSlaveSequenceItemConverter.sv(159): Index 10 into empty array is out of bounds.
#    Time: 25 ns  Iteration: 11  Region: /uvm_pkg::uvm_task_phase::execute
# ** Warning: (vsim-8233) ../../src/hvlTop/slaveAgent/AhbSlaveSequenceItemConverter.sv(159): Index 9 into empty array is out of bounds.
#    Time: 25 ns  Iteration: 11  Region: /uvm_pkg::uvm_task_phase::execute
# ** Warning: (vsim-8233) ../../src/hvlTop/slaveAgent/AhbSlaveSequenceItemConverter.sv(159): Index 8 into empty array is out of bounds.
#    Time: 25 ns  Iteration: 11  Region: /uvm_pkg::uvm_task_phase::execute
# ** Warning: (vsim-8233) ../../src/hvlTop/slaveAgent/AhbSlaveSequenceItemConverter.sv(159): Index 7 into empty array is out of bounds.
#    Time: 25 ns  Iteration: 11  Region: /uvm_pkg::uvm_task_phase::execute
# ** Warning: (vsim-8233) ../../src/hvlTop/slaveAgent/AhbSlaveSequenceItemConverter.sv(159): Index 6 into empty array is out of bounds.
#    Time: 25 ns  Iteration: 11  Region: /uvm_pkg::uvm_task_phase::execute
# ** Warning: (vsim-8233) ../../src/hvlTop/slaveAgent/AhbSlaveSequenceItemConverter.sv(159): Index 5 into empty array is out of bounds.
#    Time: 25 ns  Iteration: 11  Region: /uvm_pkg::uvm_task_phase::execute
# ** Warning: (vsim-8233) ../../src/hvlTop/slaveAgent/AhbSlaveSequenceItemConverter.sv(159): Index 4 into empty array is out of bounds.
#    Time: 25 ns  Iteration: 11  Region: /uvm_pkg::uvm_task_phase::execute
# ** Warning: (vsim-8233) ../../src/hvlTop/slaveAgent/AhbSlaveSequenceItemConverter.sv(159): Index 3 into empty array is out of bounds.
#    Time: 25 ns  Iteration: 11  Region: /uvm_pkg::uvm_task_phase::execute
# ** Warning: (vsim-8233) ../../src/hvlTop/slaveAgent/AhbSlaveSequenceItemConverter.sv(159): Index 2 into empty array is out of bounds.
#    Time: 25 ns  Iteration: 11  Region: /uvm_pkg::uvm_task_phase::execute
# ** Warning: (vsim-8233) ../../src/hvlTop/slaveAgent/AhbSlaveSequenceItemConverter.sv(159): Index 1 into empty array is out of bounds.
#    Time: 25 ns  Iteration: 11  Region: /uvm_pkg::uvm_task_phase::execute
# UVM_INFO ../../src/hvlTop/slaveAgent/AhbSlaveMonitorProxy.sv(55) @ 25: uvm_test_top.swasthik.ahbSlaveAgent[0].ahbSlaveMonitorProxy [AhbSlaveMonitorProxy] Sending packet via analysis_port: , 
#  -----------------------------------------------------------------
# Name                Type                 Size  Value             
# -----------------------------------------------------------------
# slave Packet        AhbSlaveTransaction  -     @1773             
#   haddr             integral             32    'h0               
#   hselx             integral             2     'b0               
#   hburst            string               6     SINGLE            
#   hmastlock         integral             1     'h0               
#   hprot             string               18    NORMAL_SECURE_DATA
#   hsize             string               4     BYTE              
#   hnonsec           integral             1     'h0               
#   hexcl             integral             1     'h0               
#   hmaster           integral             1     'd0               
#   htrans            string               4     IDLE              
#   hwrite            string               4     READ              
#   hreadyout         integral             1     'h1               
#   hresp             string               0     ""                
#   hexokay           integral             1     'h0               
#   hready            integral             1     'h0               
#   choosePacketData  integral             1     'd0               
#   hrdata[0]         integral             32    'h0               
# -----------------------------------------------------------------
# 
# UVM_INFO ../../src/hvlTop/slaveAgent/AhbSlaveCoverage.sv(39) @ 25: uvm_test_top.swasthik.ahbSlaveAgent[0].ahbSlaveCoverage [AhbSlaveCoverage] AHB SLAVE COVERAGE
# CONNVERTER NO OF WAIT STATES IS 0
# -----------------------------------------------------------
# Name                      Type                  Size  Value
# -----------------------------------------------------------
# ahbMasterPacket           AhbMasterTransaction  -     @1769
#   haddr                   integral              32    'h0  
#   hselx                   integral              2     'b0  
#   hburst                  string                0     ""   
#   hmastlock               integral              1     'h0  
#   hprot                   string                0     ""   
#   hsize                   string                0     ""   
#   hnonsec                 integral              1     'h0  
#   hexcl                   integral              1     'h0  
#   hmaster                 integral              1     'd0  
#   htrans                  string                4     IDLE 
#   hwrite                  string                4     READ 
#   hreadyout               integral              1     'h0  
#   hresp                   string                4     OKAY 
#   hexokay                 integral              1     'h0  
#   hready                  integral              1     'h0  
#   noOfwaitStatesDetected  integral              32    'h0  
#   hrdata[0]               integral              32    'h0  
#   hrdata[1]               integral              32    'h0  
# -----------------------------------------------------------
# run phase got s_tx
# -----------------------------------------------------------------
# Name                Type                 Size  Value             
# -----------------------------------------------------------------
# slave Packet        AhbSlaveTransaction  -     @1773             
#   haddr             integral             32    'h0               
#   hselx             integral             2     'b0               
#   hburst            string               6     SINGLE            
#   hmastlock         integral             1     'h0               
#   hprot             string               18    NORMAL_SECURE_DATA
#   hsize             string               4     BYTE              
#   hnonsec           integral             1     'h0               
#   hexcl             integral             1     'h0               
#   hmaster           integral             1     'd0               
#   htrans            string               4     IDLE              
#   hwrite            string               4     READ              
#   hreadyout         integral             1     'h1               
#   hresp             string               0     ""                
#   hexokay           integral             1     'h0               
#   hready            integral             1     'h0               
#   choosePacketData  integral             1     'd0               
#   hrdata[0]         integral             32    'h0               
# -----------------------------------------------------------------
# [26] master_request[1][0] = x , master_hmastlock[0] == 0
# [26] master_request[1][1] = x , master_hmastlock[1] == 0
# [26] master_request[0][0] = 1 , master_hmastlock[0] == 0
# [26] master_request[0][1] = 1 , master_hmastlock[1] == 0
# DRIVER
# ** Warning: (vsim-8233) ../../src/hvlTop/masterAgent/AhbMasterSequenceItemConverter.sv(167): Index 16 into array dimension [0:1] is out of bounds.
#    Time: 35 ns  Iteration: 2  Region: /uvm_pkg::uvm_task_phase::execute
# ** Warning: (vsim-8233) ../../src/hvlTop/masterAgent/AhbMasterSequenceItemConverter.sv(167): Index 15 into array dimension [0:1] is out of bounds.
#    Time: 35 ns  Iteration: 2  Region: /uvm_pkg::uvm_task_phase::execute
# ** Warning: (vsim-8233) ../../src/hvlTop/masterAgent/AhbMasterSequenceItemConverter.sv(167): Index 14 into array dimension [0:1] is out of bounds.
#    Time: 35 ns  Iteration: 2  Region: /uvm_pkg::uvm_task_phase::execute
# ** Warning: (vsim-8233) ../../src/hvlTop/masterAgent/AhbMasterSequenceItemConverter.sv(167): Index 13 into array dimension [0:1] is out of bounds.
#    Time: 35 ns  Iteration: 2  Region: /uvm_pkg::uvm_task_phase::execute
# ** Warning: (vsim-8233) ../../src/hvlTop/masterAgent/AhbMasterSequenceItemConverter.sv(167): Index 12 into array dimension [0:1] is out of bounds.
#    Time: 35 ns  Iteration: 2  Region: /uvm_pkg::uvm_task_phase::execute
# ** Warning: (vsim-8233) ../../src/hvlTop/masterAgent/AhbMasterSequenceItemConverter.sv(167): Index 11 into array dimension [0:1] is out of bounds.
#    Time: 35 ns  Iteration: 2  Region: /uvm_pkg::uvm_task_phase::execute
# ** Warning: (vsim-8233) ../../src/hvlTop/masterAgent/AhbMasterSequenceItemConverter.sv(167): Index 10 into array dimension [0:1] is out of bounds.
#    Time: 35 ns  Iteration: 2  Region: /uvm_pkg::uvm_task_phase::execute
# ** Warning: (vsim-8233) ../../src/hvlTop/masterAgent/AhbMasterSequenceItemConverter.sv(167): Index 9 into array dimension [0:1] is out of bounds.
#    Time: 35 ns  Iteration: 2  Region: /uvm_pkg::uvm_task_phase::execute
# ** Warning: (vsim-8233) ../../src/hvlTop/masterAgent/AhbMasterSequenceItemConverter.sv(167): Index 8 into array dimension [0:1] is out of bounds.
#    Time: 35 ns  Iteration: 2  Region: /uvm_pkg::uvm_task_phase::execute
# ** Warning: (vsim-8233) ../../src/hvlTop/masterAgent/AhbMasterSequenceItemConverter.sv(167): Index 7 into array dimension [0:1] is out of bounds.
#    Time: 35 ns  Iteration: 2  Region: /uvm_pkg::uvm_task_phase::execute
# ** Warning: (vsim-8233) ../../src/hvlTop/masterAgent/AhbMasterSequenceItemConverter.sv(167): Index 6 into array dimension [0:1] is out of bounds.
#    Time: 35 ns  Iteration: 2  Region: /uvm_pkg::uvm_task_phase::execute
# ** Warning: (vsim-8233) ../../src/hvlTop/masterAgent/AhbMasterSequenceItemConverter.sv(167): Index 5 into array dimension [0:1] is out of bounds.
#    Time: 35 ns  Iteration: 2  Region: /uvm_pkg::uvm_task_phase::execute
# ** Warning: (vsim-8233) ../../src/hvlTop/masterAgent/AhbMasterSequenceItemConverter.sv(167): Index 4 into array dimension [0:1] is out of bounds.
#    Time: 35 ns  Iteration: 2  Region: /uvm_pkg::uvm_task_phase::execute
# ** Warning: (vsim-8233) ../../src/hvlTop/masterAgent/AhbMasterSequenceItemConverter.sv(167): Index 3 into array dimension [0:1] is out of bounds.
#    Time: 35 ns  Iteration: 2  Region: /uvm_pkg::uvm_task_phase::execute
# UVM_INFO ../../src/hvlTop/masterAgent/AhbMasterMonitorProxy.sv(57) @ 35: uvm_test_top.swasthik.ahbMasterAgent[0].ahbMasterMonitorProxy [AhbMasterMonitorProxy] Sending packet via analysis_port: , 
#  -------------------------------------------------------------------------------
# Name                      Type                  Size  Value                    
# -------------------------------------------------------------------------------
# ahbMasterPacket           AhbMasterTransaction  -     @1777                    
#   haddr                   integral              32    'hd4                     
#   hselx                   integral              2     'b0                      
#   hburst                  string                5     WRAP4                    
#   hmastlock               integral              1     'h0                      
#   hprot                   string                25    NORMAL_SECURE_INSTRUCTION
#   hsize                   string                4     WORD                     
#   hnonsec                 integral              1     'h1                      
#   hexcl                   integral              1     'h0                      
#   hmaster                 integral              1     'd0                      
#   htrans                  string                6     NONSEQ                   
#   hwrite                  string                5     WRITE                    
#   hreadyout               integral              1     'h0                      
#   hresp                   string                4     OKAY                     
#   hexokay                 integral              1     'h0                      
#   hready                  integral              1     'h0                      
#   noOfwaitStatesDetected  integral              32    'h0                      
#   hwdata[0]               integral              32    'hc4fddc9b               
#   hwstrb[0]               integral              4     'b1111                   
#   hrdata[0]               integral              32    'h0                      
#   hrdata[1]               integral              32    'h0                      
#   hrdata[2]               integral              32    'h0                      
# -------------------------------------------------------------------------------
# 
# UVM_INFO ../../src/hvlTop/masterAgent/AhbMasterCoverage.sv(107) @ 35: uvm_test_top.swasthik.ahbMasterAgent[0].ahbMasterCoverage [AhbMasterCoverage] Before calling SAMPLE METHOD
# UVM_INFO ../../src/hvlTop/masterAgent/AhbMasterCoverage.sv(109) @ 35: uvm_test_top.swasthik.ahbMasterAgent[0].ahbMasterCoverage [AhbMasterCoverage] After calling SAMPLE METHOD
# HEY I AM INSIDE BURST
# ** Warning: (vsim-8233) ../../src/hvlTop/slaveAgent/AhbSlaveSequenceItemConverter.sv(159): Index 16 into array dimension [0:0] is out of bounds.
#    Time: 35 ns  Iteration: 2  Region: /uvm_pkg::uvm_task_phase::execute
# ** Warning: (vsim-8233) ../../src/hvlTop/slaveAgent/AhbSlaveSequenceItemConverter.sv(159): Index 15 into array dimension [0:0] is out of bounds.
#    Time: 35 ns  Iteration: 2  Region: /uvm_pkg::uvm_task_phase::execute
# ** Warning: (vsim-8233) ../../src/hvlTop/slaveAgent/AhbSlaveSequenceItemConverter.sv(159): Index 14 into array dimension [0:0] is out of bounds.
#    Time: 35 ns  Iteration: 2  Region: /uvm_pkg::uvm_task_phase::execute
# ** Warning: (vsim-8233) ../../src/hvlTop/slaveAgent/AhbSlaveSequenceItemConverter.sv(159): Index 13 into array dimension [0:0] is out of bounds.
#    Time: 35 ns  Iteration: 2  Region: /uvm_pkg::uvm_task_phase::execute
# ** Warning: (vsim-8233) ../../src/hvlTop/slaveAgent/AhbSlaveSequenceItemConverter.sv(159): Index 12 into array dimension [0:0] is out of bounds.
#    Time: 35 ns  Iteration: 2  Region: /uvm_pkg::uvm_task_phase::execute
# ** Warning: (vsim-8233) ../../src/hvlTop/slaveAgent/AhbSlaveSequenceItemConverter.sv(159): Index 11 into array dimension [0:0] is out of bounds.
#    Time: 35 ns  Iteration: 2  Region: /uvm_pkg::uvm_task_phase::execute
# ** Warning: (vsim-8233) ../../src/hvlTop/slaveAgent/AhbSlaveSequenceItemConverter.sv(159): Index 10 into array dimension [0:0] is out of bounds.
#    Time: 35 ns  Iteration: 2  Region: /uvm_pkg::uvm_task_phase::execute
# ** Warning: (vsim-8233) ../../src/hvlTop/slaveAgent/AhbSlaveSequenceItemConverter.sv(159): Index 9 into array dimension [0:0] is out of bounds.
#    Time: 35 ns  Iteration: 2  Region: /uvm_pkg::uvm_task_phase::execute
# ** Warning: (vsim-8233) ../../src/hvlTop/slaveAgent/AhbSlaveSequenceItemConverter.sv(159): Index 8 into array dimension [0:0] is out of bounds.
#    Time: 35 ns  Iteration: 2  Region: /uvm_pkg::uvm_task_phase::execute
# ** Warning: (vsim-8233) ../../src/hvlTop/slaveAgent/AhbSlaveSequenceItemConverter.sv(159): Index 7 into array dimension [0:0] is out of bounds.
#    Time: 35 ns  Iteration: 2  Region: /uvm_pkg::uvm_task_phase::execute
# ** Warning: (vsim-8233) ../../src/hvlTop/slaveAgent/AhbSlaveSequenceItemConverter.sv(159): Index 6 into array dimension [0:0] is out of bounds.
#    Time: 35 ns  Iteration: 2  Region: /uvm_pkg::uvm_task_phase::execute
# ** Warning: (vsim-8233) ../../src/hvlTop/slaveAgent/AhbSlaveSequenceItemConverter.sv(159): Index 5 into array dimension [0:0] is out of bounds.
#    Time: 35 ns  Iteration: 2  Region: /uvm_pkg::uvm_task_phase::execute
# ** Warning: (vsim-8233) ../../src/hvlTop/slaveAgent/AhbSlaveSequenceItemConverter.sv(159): Index 4 into array dimension [0:0] is out of bounds.
#    Time: 35 ns  Iteration: 2  Region: /uvm_pkg::uvm_task_phase::execute
# ** Warning: (vsim-8233) ../../src/hvlTop/slaveAgent/AhbSlaveSequenceItemConverter.sv(159): Index 3 into array dimension [0:0] is out of bounds.
#    Time: 35 ns  Iteration: 2  Region: /uvm_pkg::uvm_task_phase::execute
# ** Warning: (vsim-8233) ../../src/hvlTop/slaveAgent/AhbSlaveSequenceItemConverter.sv(159): Index 2 into array dimension [0:0] is out of bounds.
#    Time: 35 ns  Iteration: 2  Region: /uvm_pkg::uvm_task_phase::execute
# UVM_INFO ../../src/hvlTop/slaveAgent/AhbSlaveMonitorProxy.sv(55) @ 35: uvm_test_top.swasthik.ahbSlaveAgent[0].ahbSlaveMonitorProxy [AhbSlaveMonitorProxy] Sending packet via analysis_port: , 
#  ------------------------------------------------------------------------
# Name                Type                 Size  Value                    
# ------------------------------------------------------------------------
# slave Packet        AhbSlaveTransaction  -     @1781                    
#   haddr             integral             32    'hd4                     
#   hselx             integral             2     'b1                      
#   hburst            string               5     WRAP4                    
#   hmastlock         integral             1     'h0                      
#   hprot             string               25    NORMAL_SECURE_INSTRUCTION
#   hsize             string               4     WORD                     
#   hnonsec           integral             1     'h0                      
#   hexcl             integral             1     'h0                      
#   hmaster           integral             1     'd0                      
#   htrans            string               6     NONSEQ                   
#   hwrite            string               5     WRITE                    
#   hreadyout         integral             1     'h1                      
#   hresp             string               0     ""                       
#   hexokay           integral             1     'h0                      
#   hready            integral             1     'h0                      
#   choosePacketData  integral             1     'd0                      
#   hwdata[0]         integral             32    'hc4fddc9b               
#   hwstrb[0]         integral             4     'b1111                   
#   hrdata[0]         integral             32    'h0                      
#   hrdata[1]         integral             32    'h0                      
# ------------------------------------------------------------------------
# 
# UVM_INFO ../../src/hvlTop/slaveAgent/AhbSlaveCoverage.sv(39) @ 35: uvm_test_top.swasthik.ahbSlaveAgent[0].ahbSlaveCoverage [AhbSlaveCoverage] AHB SLAVE COVERAGE
# CONNVERTER NO OF WAIT STATES IS 0
# -------------------------------------------------------------------------------
# Name                      Type                  Size  Value                    
# -------------------------------------------------------------------------------
# ahbMasterPacket           AhbMasterTransaction  -     @1777                    
#   haddr                   integral              32    'hd4                     
#   hselx                   integral              2     'b0                      
#   hburst                  string                5     WRAP4                    
#   hmastlock               integral              1     'h0                      
#   hprot                   string                25    NORMAL_SECURE_INSTRUCTION
#   hsize                   string                4     WORD                     
#   hnonsec                 integral              1     'h1                      
#   hexcl                   integral              1     'h0                      
#   hmaster                 integral              1     'd0                      
#   htrans                  string                6     NONSEQ                   
#   hwrite                  string                5     WRITE                    
#   hreadyout               integral              1     'h0                      
#   hresp                   string                4     OKAY                     
#   hexokay                 integral              1     'h0                      
#   hready                  integral              1     'h0                      
#   noOfwaitStatesDetected  integral              32    'h0                      
#   hwdata[0]               integral              32    'hc4fddc9b               
#   hwstrb[0]               integral              4     'b1111                   
#   hrdata[0]               integral              32    'h0                      
#   hrdata[1]               integral              32    'h0                      
#   hrdata[2]               integral              32    'h0                      
# -------------------------------------------------------------------------------
# UVM_INFO ../../src/hvlTop/environment/AhbScoreboard.sv(144) @ 35: uvm_test_top.swasthik.ahbScoreboard [REF_MODEL_WRITE]  SLAVE=0 ADDR=0xd5 DATA=0x9b (beat=0 byte=0)
# UVM_INFO ../../src/hvlTop/environment/AhbScoreboard.sv(144) @ 35: uvm_test_top.swasthik.ahbScoreboard [REF_MODEL_WRITE]  SLAVE=0 ADDR=0xd7 DATA=0xdc (beat=0 byte=1)
# UVM_INFO ../../src/hvlTop/environment/AhbScoreboard.sv(144) @ 35: uvm_test_top.swasthik.ahbScoreboard [REF_MODEL_WRITE]  SLAVE=0 ADDR=0xd9 DATA=0xfd (beat=0 byte=2)
# UVM_INFO ../../src/hvlTop/environment/AhbScoreboard.sv(144) @ 35: uvm_test_top.swasthik.ahbScoreboard [REF_MODEL_WRITE]  SLAVE=0 ADDR=0xdb DATA=0xc4 (beat=0 byte=3)
# run phase got s_tx
# ------------------------------------------------------------------------
# Name                Type                 Size  Value                    
# ------------------------------------------------------------------------
# slave Packet        AhbSlaveTransaction  -     @1781                    
#   haddr             integral             32    'hd4                     
#   hselx             integral             2     'b1                      
#   hburst            string               5     WRAP4                    
#   hmastlock         integral             1     'h0                      
#   hprot             string               25    NORMAL_SECURE_INSTRUCTION
#   hsize             string               4     WORD                     
#   hnonsec           integral             1     'h0                      
#   hexcl             integral             1     'h0                      
#   hmaster           integral             1     'd0                      
#   htrans            string               6     NONSEQ                   
#   hwrite            string               5     WRITE                    
#   hreadyout         integral             1     'h1                      
#   hresp             string               0     ""                       
#   hexokay           integral             1     'h0                      
#   hready            integral             1     'h0                      
#   choosePacketData  integral             1     'd0                      
#   hwdata[0]         integral             32    'hc4fddc9b               
#   hwstrb[0]         integral             4     'b1111                   
#   hrdata[0]         integral             32    'h0                      
#   hrdata[1]         integral             32    'h0                      
# ------------------------------------------------------------------------
# -------------------------------------------------------------------------------
# Name                      Type                  Size  Value                    
# -------------------------------------------------------------------------------
# ahbMasterPacket           AhbMasterTransaction  -     @1785                    
#   haddr                   integral              32    'hd4                     
#   hselx                   integral              2     'b0                      
#   hburst                  string                5     WRAP4                    
#   hmastlock               integral              1     'h0                      
#   hprot                   string                25    NORMAL_SECURE_INSTRUCTION
#   hsize                   string                4     WORD                     
#   hnonsec                 integral              1     'h1                      
#   hexcl                   integral              1     'h0                      
#   hmaster                 integral              1     'd0                      
#   htrans                  string                6     NONSEQ                   
#   hwrite                  string                5     WRITE                    
#   hreadyout               integral              1     'h0                      
#   hresp                   string                4     OKAY                     
#   hexokay                 integral              1     'h0                      
#   hready                  integral              1     'h0                      
#   noOfwaitStatesDetected  integral              32    'h0                      
#   hwdata[0]               integral              32    'hc4fddc9b               
#   hwstrb[0]               integral              4     'b1111                   
#   hrdata[0]               integral              32    'h0                      
#   hrdata[1]               integral              32    'h0                      
#   hrdata[2]               integral              32    'h0                      
# -------------------------------------------------------------------------------
# ------------------------------------------------------------------------
# Name                Type                 Size  Value                    
# ------------------------------------------------------------------------
# slave Packet        AhbSlaveTransaction  -     @1781                    
#   haddr             integral             32    'hd4                     
#   hselx             integral             2     'b1                      
#   hburst            string               5     WRAP4                    
#   hmastlock         integral             1     'h0                      
#   hprot             string               25    NORMAL_SECURE_INSTRUCTION
#   hsize             string               4     WORD                     
#   hnonsec           integral             1     'h0                      
#   hexcl             integral             1     'h0                      
#   hmaster           integral             1     'd0                      
#   htrans            string               6     NONSEQ                   
#   hwrite            string               5     WRITE                    
#   hreadyout         integral             1     'h1                      
#   hresp             string               0     ""                       
#   hexokay           integral             1     'h0                      
#   hready            integral             1     'h0                      
#   choosePacketData  integral             1     'd0                      
#   hwdata[0]         integral             32    'hc4fddc9b               
#   hwstrb[0]         integral             4     'b1111                   
#   hrdata[0]         integral             32    'h0                      
#   hrdata[1]         integral             32    'h0                      
# ------------------------------------------------------------------------
# UVM_INFO ../../src/hvlTop/environment/AhbScoreboard.sv(387) @ 35: uvm_test_top.swasthik.ahbScoreboard [AhbScoreboard] ---------------- AHB SCOREBOARD [WRITE] ----------------
# UVM_INFO ../../src/hvlTop/environment/AhbScoreboard.sv(390) @ 35: uvm_test_top.swasthik.ahbScoreboard [SB_HADDR_MATCH] HADDR Match: 000000d4, s_idx = 0
# UVM_INFO ../../src/hvlTop/environment/AhbScoreboard.sv(409) @ 35: uvm_test_top.swasthik.ahbScoreboard [SB_HWDATA_MATCH] HWDATA match at beat 0: c4fddc9b, s_idx = 0
# UVM_INFO ../../src/hvlTop/environment/AhbScoreboard.sv(417) @ 35: uvm_test_top.swasthik.ahbScoreboard [SB_HPROT_MATCH] HPROT Match
# UVM_INFO ../../src/hvlTop/environment/AhbScoreboard.sv(423) @ 35: uvm_test_top.swasthik.ahbScoreboard [SB_HSIZE_MATCH] HSIZE Match
# UVM_INFO ../../src/hvlTop/environment/AhbScoreboard.sv(429) @ 35: uvm_test_top.swasthik.ahbScoreboard [AhbScoreboard] -------------- END WRITE COMPARISON ----------------
# sending to compare
# exp_tx
# -------------------------------------------------------------------------------
# Name                      Type                  Size  Value                    
# -------------------------------------------------------------------------------
# ahbMasterPacket           AhbMasterTransaction  -     @1785                    
#   haddr                   integral              32    'hd4                     
#   hselx                   integral              2     'b0                      
#   hburst                  string                5     WRAP4                    
#   hmastlock               integral              1     'h0                      
#   hprot                   string                25    NORMAL_SECURE_INSTRUCTION
#   hsize                   string                4     WORD                     
#   hnonsec                 integral              1     'h1                      
